Chronologic VCS simulator copyright 1991-2020
Contains Synopsys proprietary information.
Compiler version Q-2020.03-SP2-8_Full64; Runtime version Q-2020.03-SP2-8_Full64;  Sep 15 12:32 2026

 VCS Coverage Metrics Release Q-2020.03-SP2-8_Full64 Copyright (c) 1991-2020 by Synopsys Inc.
UVM_INFO @ 0: reporter [RNTST] Running test axi4l_test...
UVM_INFO axi4l_test.sv(35) @ 30000: uvm_test_top [axi4l_test] Starting sequence now...
UVM_INFO axi4l_driver.sv(33) @ 30000: uvm_test_top.env.agt.drv [DISPATCH_TRACE] Queued item, txn_sel=0
UVM_INFO axi4l_driver.sv(33) @ 30000: uvm_test_top.env.agt.drv [DISPATCH_TRACE] Queued item, txn_sel=10
UVM_INFO axi4l_driver.sv(33) @ 30000: uvm_test_top.env.agt.drv [DISPATCH_TRACE] Queued item, txn_sel=0
UVM_INFO axi4l_driver.sv(33) @ 30000: uvm_test_top.env.agt.drv [DISPATCH_TRACE] Queued item, txn_sel=11
UVM_INFO axi4l_driver.sv(33) @ 30000: uvm_test_top.env.agt.drv [DISPATCH_TRACE] Queued item, txn_sel=10
UVM_INFO axi4l_driver.sv(33) @ 30000: uvm_test_top.env.agt.drv [DISPATCH_TRACE] Queued item, txn_sel=11
UVM_INFO axi4l_driver.sv(33) @ 30000: uvm_test_top.env.agt.drv [DISPATCH_TRACE] Queued item, txn_sel=11
UVM_INFO axi4l_driver.sv(33) @ 30000: uvm_test_top.env.agt.drv [DISPATCH_TRACE] Queued item, txn_sel=1
UVM_INFO axi4l_driver.sv(33) @ 30000: uvm_test_top.env.agt.drv [DISPATCH_TRACE] Queued item, txn_sel=1
UVM_INFO axi4l_driver.sv(33) @ 30000: uvm_test_top.env.agt.drv [DISPATCH_TRACE] Queued item, txn_sel=10
UVM_INFO axi4l_driver.sv(33) @ 30000: uvm_test_top.env.agt.drv [DISPATCH_TRACE] Queued item, txn_sel=0
UVM_INFO axi4l_driver.sv(33) @ 30000: uvm_test_top.env.agt.drv [DISPATCH_TRACE] Queued item, txn_sel=0
UVM_INFO axi4l_driver.sv(33) @ 30000: uvm_test_top.env.agt.drv [DISPATCH_TRACE] Queued item, txn_sel=0
UVM_INFO axi4l_driver.sv(33) @ 30000: uvm_test_top.env.agt.drv [DISPATCH_TRACE] Queued item, txn_sel=10
UVM_INFO axi4l_driver.sv(33) @ 30000: uvm_test_top.env.agt.drv [DISPATCH_TRACE] Queued item, txn_sel=0
UVM_INFO axi4l_driver.sv(33) @ 30000: uvm_test_top.env.agt.drv [DISPATCH_TRACE] Queued item, txn_sel=0
UVM_INFO axi4l_driver.sv(33) @ 30000: uvm_test_top.env.agt.drv [DISPATCH_TRACE] Queued item, txn_sel=1
UVM_INFO axi4l_driver.sv(33) @ 30000: uvm_test_top.env.agt.drv [DISPATCH_TRACE] Queued item, txn_sel=0
UVM_INFO axi4l_driver.sv(33) @ 30000: uvm_test_top.env.agt.drv [DISPATCH_TRACE] Queued item, txn_sel=0
UVM_INFO axi4l_driver.sv(33) @ 30000: uvm_test_top.env.agt.drv [DISPATCH_TRACE] Queued item, txn_sel=11
UVM_INFO axi4l_driver.sv(33) @ 30000: uvm_test_top.env.agt.drv [DISPATCH_TRACE] Queued item, txn_sel=0
UVM_INFO axi4l_driver.sv(33) @ 30000: uvm_test_top.env.agt.drv [DISPATCH_TRACE] Queued item, txn_sel=1
UVM_INFO axi4l_driver.sv(33) @ 30000: uvm_test_top.env.agt.drv [DISPATCH_TRACE] Queued item, txn_sel=10
UVM_INFO axi4l_driver.sv(33) @ 30000: uvm_test_top.env.agt.drv [DISPATCH_TRACE] Queued item, txn_sel=11
UVM_INFO axi4l_driver.sv(33) @ 30000: uvm_test_top.env.agt.drv [DISPATCH_TRACE] Queued item, txn_sel=1
UVM_INFO axi4l_driver.sv(33) @ 30000: uvm_test_top.env.agt.drv [DISPATCH_TRACE] Queued item, txn_sel=1
UVM_INFO axi4l_driver.sv(33) @ 30000: uvm_test_top.env.agt.drv [DISPATCH_TRACE] Queued item, txn_sel=1
UVM_INFO axi4l_driver.sv(33) @ 30000: uvm_test_top.env.agt.drv [DISPATCH_TRACE] Queued item, txn_sel=11
UVM_INFO axi4l_driver.sv(33) @ 30000: uvm_test_top.env.agt.drv [DISPATCH_TRACE] Queued item, txn_sel=1
UVM_INFO axi4l_driver.sv(33) @ 30000: uvm_test_top.env.agt.drv [DISPATCH_TRACE] Queued item, txn_sel=0
UVM_INFO axi4l_driver.sv(33) @ 30000: uvm_test_top.env.agt.drv [DISPATCH_TRACE] Queued item, txn_sel=1
UVM_INFO axi4l_driver.sv(33) @ 30000: uvm_test_top.env.agt.drv [DISPATCH_TRACE] Queued item, txn_sel=0
UVM_INFO axi4l_driver.sv(33) @ 30000: uvm_test_top.env.agt.drv [DISPATCH_TRACE] Queued item, txn_sel=11
UVM_INFO axi4l_driver.sv(33) @ 30000: uvm_test_top.env.agt.drv [DISPATCH_TRACE] Queued item, txn_sel=10
UVM_INFO axi4l_driver.sv(33) @ 30000: uvm_test_top.env.agt.drv [DISPATCH_TRACE] Queued item, txn_sel=0
UVM_INFO axi4l_driver.sv(33) @ 30000: uvm_test_top.env.agt.drv [DISPATCH_TRACE] Queued item, txn_sel=1
UVM_INFO axi4l_driver.sv(33) @ 30000: uvm_test_top.env.agt.drv [DISPATCH_TRACE] Queued item, txn_sel=11
UVM_INFO axi4l_driver.sv(33) @ 30000: uvm_test_top.env.agt.drv [DISPATCH_TRACE] Queued item, txn_sel=11
UVM_INFO axi4l_driver.sv(33) @ 30000: uvm_test_top.env.agt.drv [DISPATCH_TRACE] Queued item, txn_sel=11
UVM_INFO axi4l_driver.sv(33) @ 30000: uvm_test_top.env.agt.drv [DISPATCH_TRACE] Queued item, txn_sel=0
UVM_INFO axi4l_driver.sv(33) @ 30000: uvm_test_top.env.agt.drv [DISPATCH_TRACE] Queued item, txn_sel=10
UVM_INFO axi4l_driver.sv(33) @ 30000: uvm_test_top.env.agt.drv [DISPATCH_TRACE] Queued item, txn_sel=0
UVM_INFO axi4l_driver.sv(33) @ 30000: uvm_test_top.env.agt.drv [DISPATCH_TRACE] Queued item, txn_sel=10
UVM_INFO axi4l_driver.sv(33) @ 30000: uvm_test_top.env.agt.drv [DISPATCH_TRACE] Queued item, txn_sel=0
UVM_INFO axi4l_driver.sv(33) @ 30000: uvm_test_top.env.agt.drv [DISPATCH_TRACE] Queued item, txn_sel=0
UVM_INFO axi4l_driver.sv(33) @ 30000: uvm_test_top.env.agt.drv [DISPATCH_TRACE] Queued item, txn_sel=1
UVM_INFO axi4l_driver.sv(33) @ 30000: uvm_test_top.env.agt.drv [DISPATCH_TRACE] Queued item, txn_sel=1
UVM_INFO axi4l_driver.sv(33) @ 30000: uvm_test_top.env.agt.drv [DISPATCH_TRACE] Queued item, txn_sel=10
UVM_INFO axi4l_driver.sv(33) @ 30000: uvm_test_top.env.agt.drv [DISPATCH_TRACE] Queued item, txn_sel=10
UVM_INFO axi4l_driver.sv(33) @ 30000: uvm_test_top.env.agt.drv [DISPATCH_TRACE] Queued item, txn_sel=10
UVM_INFO axi4l_driver.sv(33) @ 30000: uvm_test_top.env.agt.drv [DISPATCH_TRACE] Queued item, txn_sel=10
UVM_INFO axi4l_driver.sv(33) @ 30000: uvm_test_top.env.agt.drv [DISPATCH_TRACE] Queued item, txn_sel=11
UVM_INFO axi4l_driver.sv(33) @ 30000: uvm_test_top.env.agt.drv [DISPATCH_TRACE] Queued item, txn_sel=10
UVM_INFO axi4l_driver.sv(33) @ 30000: uvm_test_top.env.agt.drv [DISPATCH_TRACE] Queued item, txn_sel=0
UVM_INFO axi4l_driver.sv(33) @ 30000: uvm_test_top.env.agt.drv [DISPATCH_TRACE] Queued item, txn_sel=1
UVM_INFO axi4l_driver.sv(33) @ 30000: uvm_test_top.env.agt.drv [DISPATCH_TRACE] Queued item, txn_sel=1
UVM_INFO axi4l_driver.sv(33) @ 30000: uvm_test_top.env.agt.drv [DISPATCH_TRACE] Queued item, txn_sel=11
UVM_INFO axi4l_driver.sv(33) @ 30000: uvm_test_top.env.agt.drv [DISPATCH_TRACE] Queued item, txn_sel=0
UVM_INFO axi4l_driver.sv(33) @ 30000: uvm_test_top.env.agt.drv [DISPATCH_TRACE] Queued item, txn_sel=0
UVM_INFO axi4l_driver.sv(33) @ 30000: uvm_test_top.env.agt.drv [DISPATCH_TRACE] Queued item, txn_sel=10
UVM_INFO axi4l_driver.sv(33) @ 30000: uvm_test_top.env.agt.drv [DISPATCH_TRACE] Queued item, txn_sel=0
UVM_INFO axi4l_driver.sv(33) @ 30000: uvm_test_top.env.agt.drv [DISPATCH_TRACE] Queued item, txn_sel=1
UVM_INFO axi4l_driver.sv(33) @ 30000: uvm_test_top.env.agt.drv [DISPATCH_TRACE] Queued item, txn_sel=0
UVM_INFO axi4l_driver.sv(33) @ 30000: uvm_test_top.env.agt.drv [DISPATCH_TRACE] Queued item, txn_sel=11
UVM_INFO axi4l_driver.sv(33) @ 30000: uvm_test_top.env.agt.drv [DISPATCH_TRACE] Queued item, txn_sel=1
UVM_INFO axi4l_driver.sv(33) @ 30000: uvm_test_top.env.agt.drv [DISPATCH_TRACE] Queued item, txn_sel=11
UVM_INFO axi4l_driver.sv(33) @ 30000: uvm_test_top.env.agt.drv [DISPATCH_TRACE] Queued item, txn_sel=1
UVM_INFO axi4l_driver.sv(33) @ 30000: uvm_test_top.env.agt.drv [DISPATCH_TRACE] Queued item, txn_sel=0
UVM_INFO axi4l_driver.sv(33) @ 30000: uvm_test_top.env.agt.drv [DISPATCH_TRACE] Queued item, txn_sel=1
UVM_INFO axi4l_driver.sv(33) @ 30000: uvm_test_top.env.agt.drv [DISPATCH_TRACE] Queued item, txn_sel=0
UVM_INFO axi4l_driver.sv(33) @ 30000: uvm_test_top.env.agt.drv [DISPATCH_TRACE] Queued item, txn_sel=0
UVM_INFO axi4l_driver.sv(33) @ 30000: uvm_test_top.env.agt.drv [DISPATCH_TRACE] Queued item, txn_sel=11
UVM_INFO axi4l_driver.sv(33) @ 30000: uvm_test_top.env.agt.drv [DISPATCH_TRACE] Queued item, txn_sel=10
UVM_INFO axi4l_driver.sv(33) @ 30000: uvm_test_top.env.agt.drv [DISPATCH_TRACE] Queued item, txn_sel=0
UVM_INFO axi4l_driver.sv(33) @ 30000: uvm_test_top.env.agt.drv [DISPATCH_TRACE] Queued item, txn_sel=11
UVM_INFO axi4l_driver.sv(33) @ 30000: uvm_test_top.env.agt.drv [DISPATCH_TRACE] Queued item, txn_sel=11
UVM_INFO axi4l_driver.sv(33) @ 30000: uvm_test_top.env.agt.drv [DISPATCH_TRACE] Queued item, txn_sel=10
UVM_INFO axi4l_driver.sv(33) @ 30000: uvm_test_top.env.agt.drv [DISPATCH_TRACE] Queued item, txn_sel=0
UVM_INFO axi4l_driver.sv(33) @ 30000: uvm_test_top.env.agt.drv [DISPATCH_TRACE] Queued item, txn_sel=0
UVM_INFO axi4l_driver.sv(33) @ 30000: uvm_test_top.env.agt.drv [DISPATCH_TRACE] Queued item, txn_sel=11
UVM_INFO axi4l_driver.sv(33) @ 30000: uvm_test_top.env.agt.drv [DISPATCH_TRACE] Queued item, txn_sel=0
UVM_INFO axi4l_driver.sv(33) @ 30000: uvm_test_top.env.agt.drv [DISPATCH_TRACE] Queued item, txn_sel=0
UVM_INFO axi4l_driver.sv(33) @ 30000: uvm_test_top.env.agt.drv [DISPATCH_TRACE] Queued item, txn_sel=0
UVM_INFO axi4l_driver.sv(33) @ 30000: uvm_test_top.env.agt.drv [DISPATCH_TRACE] Queued item, txn_sel=10
UVM_INFO axi4l_driver.sv(33) @ 30000: uvm_test_top.env.agt.drv [DISPATCH_TRACE] Queued item, txn_sel=11
UVM_INFO axi4l_driver.sv(33) @ 30000: uvm_test_top.env.agt.drv [DISPATCH_TRACE] Queued item, txn_sel=1
UVM_INFO axi4l_driver.sv(33) @ 30000: uvm_test_top.env.agt.drv [DISPATCH_TRACE] Queued item, txn_sel=11
UVM_INFO axi4l_driver.sv(33) @ 30000: uvm_test_top.env.agt.drv [DISPATCH_TRACE] Queued item, txn_sel=1
UVM_INFO axi4l_driver.sv(33) @ 30000: uvm_test_top.env.agt.drv [DISPATCH_TRACE] Queued item, txn_sel=11
UVM_INFO axi4l_driver.sv(33) @ 30000: uvm_test_top.env.agt.drv [DISPATCH_TRACE] Queued item, txn_sel=1
UVM_INFO axi4l_driver.sv(33) @ 30000: uvm_test_top.env.agt.drv [DISPATCH_TRACE] Queued item, txn_sel=11
UVM_INFO axi4l_driver.sv(33) @ 30000: uvm_test_top.env.agt.drv [DISPATCH_TRACE] Queued item, txn_sel=11
UVM_INFO axi4l_driver.sv(33) @ 30000: uvm_test_top.env.agt.drv [DISPATCH_TRACE] Queued item, txn_sel=10
UVM_INFO axi4l_driver.sv(33) @ 30000: uvm_test_top.env.agt.drv [DISPATCH_TRACE] Queued item, txn_sel=0
UVM_INFO axi4l_driver.sv(33) @ 30000: uvm_test_top.env.agt.drv [DISPATCH_TRACE] Queued item, txn_sel=11
UVM_INFO axi4l_driver.sv(33) @ 30000: uvm_test_top.env.agt.drv [DISPATCH_TRACE] Queued item, txn_sel=0
UVM_INFO axi4l_driver.sv(33) @ 30000: uvm_test_top.env.agt.drv [DISPATCH_TRACE] Queued item, txn_sel=0
UVM_INFO axi4l_driver.sv(33) @ 30000: uvm_test_top.env.agt.drv [DISPATCH_TRACE] Queued item, txn_sel=1
UVM_INFO axi4l_driver.sv(33) @ 30000: uvm_test_top.env.agt.drv [DISPATCH_TRACE] Queued item, txn_sel=1
UVM_INFO axi4l_driver.sv(33) @ 30000: uvm_test_top.env.agt.drv [DISPATCH_TRACE] Queued item, txn_sel=11
UVM_INFO axi4l_driver.sv(33) @ 30000: uvm_test_top.env.agt.drv [DISPATCH_TRACE] Queued item, txn_sel=1
UVM_INFO axi4l_driver.sv(33) @ 30000: uvm_test_top.env.agt.drv [DISPATCH_TRACE] Queued item, txn_sel=1
UVM_INFO axi4l_driver.sv(33) @ 30000: uvm_test_top.env.agt.drv [DISPATCH_TRACE] Queued item, txn_sel=1
UVM_INFO axi4l_driver.sv(33) @ 30000: uvm_test_top.env.agt.drv [DISPATCH_TRACE] Queued item, txn_sel=10
UVM_INFO axi4l_driver.sv(33) @ 30000: uvm_test_top.env.agt.drv [DISPATCH_TRACE] Queued item, txn_sel=10
UVM_INFO axi4l_driver.sv(33) @ 30000: uvm_test_top.env.agt.drv [DISPATCH_TRACE] Queued item, txn_sel=0
UVM_INFO axi4l_driver.sv(33) @ 30000: uvm_test_top.env.agt.drv [DISPATCH_TRACE] Queued item, txn_sel=11
UVM_INFO axi4l_driver.sv(33) @ 30000: uvm_test_top.env.agt.drv [DISPATCH_TRACE] Queued item, txn_sel=11
UVM_INFO axi4l_driver.sv(33) @ 30000: uvm_test_top.env.agt.drv [DISPATCH_TRACE] Queued item, txn_sel=10
UVM_INFO axi4l_driver.sv(33) @ 30000: uvm_test_top.env.agt.drv [DISPATCH_TRACE] Queued item, txn_sel=1
UVM_INFO axi4l_driver.sv(33) @ 30000: uvm_test_top.env.agt.drv [DISPATCH_TRACE] Queued item, txn_sel=0
UVM_INFO axi4l_driver.sv(33) @ 30000: uvm_test_top.env.agt.drv [DISPATCH_TRACE] Queued item, txn_sel=10
UVM_INFO axi4l_driver.sv(33) @ 30000: uvm_test_top.env.agt.drv [DISPATCH_TRACE] Queued item, txn_sel=11
UVM_INFO axi4l_driver.sv(33) @ 30000: uvm_test_top.env.agt.drv [DISPATCH_TRACE] Queued item, txn_sel=0
UVM_INFO axi4l_driver.sv(33) @ 30000: uvm_test_top.env.agt.drv [DISPATCH_TRACE] Queued item, txn_sel=10
UVM_INFO axi4l_driver.sv(33) @ 30000: uvm_test_top.env.agt.drv [DISPATCH_TRACE] Queued item, txn_sel=10
UVM_INFO axi4l_driver.sv(33) @ 30000: uvm_test_top.env.agt.drv [DISPATCH_TRACE] Queued item, txn_sel=10
UVM_INFO axi4l_driver.sv(33) @ 30000: uvm_test_top.env.agt.drv [DISPATCH_TRACE] Queued item, txn_sel=10
UVM_INFO axi4l_driver.sv(33) @ 30000: uvm_test_top.env.agt.drv [DISPATCH_TRACE] Queued item, txn_sel=10
UVM_INFO axi4l_driver.sv(33) @ 30000: uvm_test_top.env.agt.drv [DISPATCH_TRACE] Queued item, txn_sel=0
UVM_INFO axi4l_driver.sv(33) @ 30000: uvm_test_top.env.agt.drv [DISPATCH_TRACE] Queued item, txn_sel=11
UVM_INFO axi4l_driver.sv(33) @ 30000: uvm_test_top.env.agt.drv [DISPATCH_TRACE] Queued item, txn_sel=0
UVM_INFO axi4l_driver.sv(33) @ 30000: uvm_test_top.env.agt.drv [DISPATCH_TRACE] Queued item, txn_sel=1
UVM_INFO axi4l_driver.sv(33) @ 30000: uvm_test_top.env.agt.drv [DISPATCH_TRACE] Queued item, txn_sel=11
UVM_INFO axi4l_driver.sv(33) @ 30000: uvm_test_top.env.agt.drv [DISPATCH_TRACE] Queued item, txn_sel=0
UVM_INFO axi4l_driver.sv(33) @ 30000: uvm_test_top.env.agt.drv [DISPATCH_TRACE] Queued item, txn_sel=1
UVM_INFO axi4l_driver.sv(33) @ 30000: uvm_test_top.env.agt.drv [DISPATCH_TRACE] Queued item, txn_sel=11
UVM_INFO axi4l_driver.sv(33) @ 30000: uvm_test_top.env.agt.drv [DISPATCH_TRACE] Queued item, txn_sel=11
UVM_INFO axi4l_driver.sv(33) @ 30000: uvm_test_top.env.agt.drv [DISPATCH_TRACE] Queued item, txn_sel=10
UVM_INFO axi4l_driver.sv(33) @ 30000: uvm_test_top.env.agt.drv [DISPATCH_TRACE] Queued item, txn_sel=10
UVM_INFO axi4l_driver.sv(33) @ 30000: uvm_test_top.env.agt.drv [DISPATCH_TRACE] Queued item, txn_sel=0
UVM_INFO axi4l_driver.sv(33) @ 30000: uvm_test_top.env.agt.drv [DISPATCH_TRACE] Queued item, txn_sel=11
UVM_INFO axi4l_driver.sv(33) @ 30000: uvm_test_top.env.agt.drv [DISPATCH_TRACE] Queued item, txn_sel=11
UVM_INFO axi4l_driver.sv(33) @ 30000: uvm_test_top.env.agt.drv [DISPATCH_TRACE] Queued item, txn_sel=0
UVM_INFO axi4l_driver.sv(33) @ 30000: uvm_test_top.env.agt.drv [DISPATCH_TRACE] Queued item, txn_sel=0
UVM_INFO axi4l_driver.sv(33) @ 30000: uvm_test_top.env.agt.drv [DISPATCH_TRACE] Queued item, txn_sel=1
UVM_INFO axi4l_driver.sv(33) @ 30000: uvm_test_top.env.agt.drv [DISPATCH_TRACE] Queued item, txn_sel=1
UVM_INFO axi4l_driver.sv(33) @ 30000: uvm_test_top.env.agt.drv [DISPATCH_TRACE] Queued item, txn_sel=0
UVM_INFO axi4l_driver.sv(33) @ 30000: uvm_test_top.env.agt.drv [DISPATCH_TRACE] Queued item, txn_sel=1
UVM_INFO axi4l_driver.sv(33) @ 30000: uvm_test_top.env.agt.drv [DISPATCH_TRACE] Queued item, txn_sel=1
UVM_INFO axi4l_driver.sv(33) @ 30000: uvm_test_top.env.agt.drv [DISPATCH_TRACE] Queued item, txn_sel=1
UVM_INFO axi4l_driver.sv(33) @ 30000: uvm_test_top.env.agt.drv [DISPATCH_TRACE] Queued item, txn_sel=0
UVM_INFO axi4l_driver.sv(33) @ 30000: uvm_test_top.env.agt.drv [DISPATCH_TRACE] Queued item, txn_sel=1
UVM_INFO axi4l_driver.sv(33) @ 30000: uvm_test_top.env.agt.drv [DISPATCH_TRACE] Queued item, txn_sel=0
UVM_INFO axi4l_driver.sv(33) @ 30000: uvm_test_top.env.agt.drv [DISPATCH_TRACE] Queued item, txn_sel=10
UVM_INFO axi4l_driver.sv(33) @ 30000: uvm_test_top.env.agt.drv [DISPATCH_TRACE] Queued item, txn_sel=10
UVM_INFO axi4l_driver.sv(33) @ 30000: uvm_test_top.env.agt.drv [DISPATCH_TRACE] Queued item, txn_sel=1
UVM_INFO axi4l_driver.sv(33) @ 30000: uvm_test_top.env.agt.drv [DISPATCH_TRACE] Queued item, txn_sel=10
UVM_INFO axi4l_driver.sv(33) @ 30000: uvm_test_top.env.agt.drv [DISPATCH_TRACE] Queued item, txn_sel=0
UVM_INFO axi4l_driver.sv(33) @ 30000: uvm_test_top.env.agt.drv [DISPATCH_TRACE] Queued item, txn_sel=1
UVM_INFO axi4l_driver.sv(33) @ 30000: uvm_test_top.env.agt.drv [DISPATCH_TRACE] Queued item, txn_sel=10
UVM_INFO axi4l_driver.sv(33) @ 30000: uvm_test_top.env.agt.drv [DISPATCH_TRACE] Queued item, txn_sel=11
UVM_INFO axi4l_driver.sv(33) @ 30000: uvm_test_top.env.agt.drv [DISPATCH_TRACE] Queued item, txn_sel=1
UVM_INFO axi4l_driver.sv(33) @ 30000: uvm_test_top.env.agt.drv [DISPATCH_TRACE] Queued item, txn_sel=10
UVM_INFO axi4l_driver.sv(33) @ 30000: uvm_test_top.env.agt.drv [DISPATCH_TRACE] Queued item, txn_sel=11
UVM_INFO axi4l_driver.sv(33) @ 30000: uvm_test_top.env.agt.drv [DISPATCH_TRACE] Queued item, txn_sel=0
UVM_INFO axi4l_driver.sv(33) @ 30000: uvm_test_top.env.agt.drv [DISPATCH_TRACE] Queued item, txn_sel=0
UVM_INFO axi4l_driver.sv(33) @ 30000: uvm_test_top.env.agt.drv [DISPATCH_TRACE] Queued item, txn_sel=10
UVM_INFO axi4l_driver.sv(33) @ 30000: uvm_test_top.env.agt.drv [DISPATCH_TRACE] Queued item, txn_sel=1
UVM_INFO axi4l_driver.sv(33) @ 30000: uvm_test_top.env.agt.drv [DISPATCH_TRACE] Queued item, txn_sel=11
UVM_INFO axi4l_driver.sv(33) @ 30000: uvm_test_top.env.agt.drv [DISPATCH_TRACE] Queued item, txn_sel=0
UVM_INFO axi4l_driver.sv(33) @ 30000: uvm_test_top.env.agt.drv [DISPATCH_TRACE] Queued item, txn_sel=1
UVM_INFO axi4l_driver.sv(33) @ 30000: uvm_test_top.env.agt.drv [DISPATCH_TRACE] Queued item, txn_sel=1
UVM_INFO axi4l_driver.sv(33) @ 30000: uvm_test_top.env.agt.drv [DISPATCH_TRACE] Queued item, txn_sel=0
UVM_INFO axi4l_driver.sv(33) @ 30000: uvm_test_top.env.agt.drv [DISPATCH_TRACE] Queued item, txn_sel=11
UVM_INFO axi4l_driver.sv(33) @ 30000: uvm_test_top.env.agt.drv [DISPATCH_TRACE] Queued item, txn_sel=10
UVM_INFO axi4l_driver.sv(33) @ 30000: uvm_test_top.env.agt.drv [DISPATCH_TRACE] Queued item, txn_sel=1
UVM_INFO axi4l_driver.sv(33) @ 30000: uvm_test_top.env.agt.drv [DISPATCH_TRACE] Queued item, txn_sel=1
UVM_INFO axi4l_driver.sv(33) @ 30000: uvm_test_top.env.agt.drv [DISPATCH_TRACE] Queued item, txn_sel=1
UVM_INFO axi4l_driver.sv(33) @ 30000: uvm_test_top.env.agt.drv [DISPATCH_TRACE] Queued item, txn_sel=10
UVM_INFO axi4l_driver.sv(33) @ 30000: uvm_test_top.env.agt.drv [DISPATCH_TRACE] Queued item, txn_sel=11
UVM_INFO axi4l_driver.sv(33) @ 30000: uvm_test_top.env.agt.drv [DISPATCH_TRACE] Queued item, txn_sel=0
UVM_INFO axi4l_driver.sv(33) @ 30000: uvm_test_top.env.agt.drv [DISPATCH_TRACE] Queued item, txn_sel=10
UVM_INFO axi4l_driver.sv(33) @ 30000: uvm_test_top.env.agt.drv [DISPATCH_TRACE] Queued item, txn_sel=0
UVM_INFO axi4l_driver.sv(33) @ 30000: uvm_test_top.env.agt.drv [DISPATCH_TRACE] Queued item, txn_sel=0
UVM_INFO axi4l_driver.sv(33) @ 30000: uvm_test_top.env.agt.drv [DISPATCH_TRACE] Queued item, txn_sel=10
UVM_INFO axi4l_driver.sv(33) @ 30000: uvm_test_top.env.agt.drv [DISPATCH_TRACE] Queued item, txn_sel=10
UVM_INFO axi4l_driver.sv(33) @ 30000: uvm_test_top.env.agt.drv [DISPATCH_TRACE] Queued item, txn_sel=10
UVM_INFO axi4l_driver.sv(33) @ 30000: uvm_test_top.env.agt.drv [DISPATCH_TRACE] Queued item, txn_sel=0
UVM_INFO axi4l_driver.sv(33) @ 30000: uvm_test_top.env.agt.drv [DISPATCH_TRACE] Queued item, txn_sel=1
UVM_INFO axi4l_driver.sv(33) @ 30000: uvm_test_top.env.agt.drv [DISPATCH_TRACE] Queued item, txn_sel=1
UVM_INFO axi4l_driver.sv(33) @ 30000: uvm_test_top.env.agt.drv [DISPATCH_TRACE] Queued item, txn_sel=1
UVM_INFO axi4l_driver.sv(33) @ 30000: uvm_test_top.env.agt.drv [DISPATCH_TRACE] Queued item, txn_sel=10
UVM_INFO axi4l_driver.sv(33) @ 30000: uvm_test_top.env.agt.drv [DISPATCH_TRACE] Queued item, txn_sel=1
UVM_INFO axi4l_driver.sv(33) @ 30000: uvm_test_top.env.agt.drv [DISPATCH_TRACE] Queued item, txn_sel=10
UVM_INFO axi4l_driver.sv(33) @ 30000: uvm_test_top.env.agt.drv [DISPATCH_TRACE] Queued item, txn_sel=1
UVM_INFO axi4l_driver.sv(33) @ 30000: uvm_test_top.env.agt.drv [DISPATCH_TRACE] Queued item, txn_sel=11
UVM_INFO axi4l_driver.sv(33) @ 30000: uvm_test_top.env.agt.drv [DISPATCH_TRACE] Queued item, txn_sel=11
UVM_INFO axi4l_driver.sv(33) @ 30000: uvm_test_top.env.agt.drv [DISPATCH_TRACE] Queued item, txn_sel=0
UVM_INFO axi4l_driver.sv(33) @ 30000: uvm_test_top.env.agt.drv [DISPATCH_TRACE] Queued item, txn_sel=0
UVM_INFO axi4l_driver.sv(33) @ 30000: uvm_test_top.env.agt.drv [DISPATCH_TRACE] Queued item, txn_sel=10
UVM_INFO axi4l_driver.sv(33) @ 30000: uvm_test_top.env.agt.drv [DISPATCH_TRACE] Queued item, txn_sel=1
UVM_INFO axi4l_driver.sv(33) @ 30000: uvm_test_top.env.agt.drv [DISPATCH_TRACE] Queued item, txn_sel=0
UVM_INFO axi4l_driver.sv(33) @ 30000: uvm_test_top.env.agt.drv [DISPATCH_TRACE] Queued item, txn_sel=0
UVM_INFO axi4l_driver.sv(33) @ 30000: uvm_test_top.env.agt.drv [DISPATCH_TRACE] Queued item, txn_sel=1
UVM_INFO axi4l_driver.sv(33) @ 30000: uvm_test_top.env.agt.drv [DISPATCH_TRACE] Queued item, txn_sel=11
UVM_INFO axi4l_driver.sv(33) @ 30000: uvm_test_top.env.agt.drv [DISPATCH_TRACE] Queued item, txn_sel=11
UVM_INFO axi4l_driver.sv(33) @ 30000: uvm_test_top.env.agt.drv [DISPATCH_TRACE] Queued item, txn_sel=0
UVM_INFO axi4l_driver.sv(33) @ 30000: uvm_test_top.env.agt.drv [DISPATCH_TRACE] Queued item, txn_sel=11
UVM_INFO axi4l_driver.sv(33) @ 30000: uvm_test_top.env.agt.drv [DISPATCH_TRACE] Queued item, txn_sel=1
UVM_INFO axi4l_driver.sv(33) @ 30000: uvm_test_top.env.agt.drv [DISPATCH_TRACE] Queued item, txn_sel=11
UVM_INFO axi4l_driver.sv(33) @ 30000: uvm_test_top.env.agt.drv [DISPATCH_TRACE] Queued item, txn_sel=0
UVM_INFO axi4l_driver.sv(33) @ 30000: uvm_test_top.env.agt.drv [DISPATCH_TRACE] Queued item, txn_sel=10
UVM_INFO axi4l_driver.sv(33) @ 30000: uvm_test_top.env.agt.drv [DISPATCH_TRACE] Queued item, txn_sel=1
UVM_INFO axi4l_driver.sv(33) @ 30000: uvm_test_top.env.agt.drv [DISPATCH_TRACE] Queued item, txn_sel=1
UVM_INFO axi4l_driver.sv(33) @ 30000: uvm_test_top.env.agt.drv [DISPATCH_TRACE] Queued item, txn_sel=0
UVM_INFO axi4l_driver.sv(33) @ 30000: uvm_test_top.env.agt.drv [DISPATCH_TRACE] Queued item, txn_sel=10
UVM_INFO axi4l_driver.sv(33) @ 30000: uvm_test_top.env.agt.drv [DISPATCH_TRACE] Queued item, txn_sel=11
UVM_INFO axi4l_driver.sv(33) @ 30000: uvm_test_top.env.agt.drv [DISPATCH_TRACE] Queued item, txn_sel=11
UVM_INFO axi4l_driver.sv(33) @ 30000: uvm_test_top.env.agt.drv [DISPATCH_TRACE] Queued item, txn_sel=11
UVM_INFO axi4l_driver.sv(33) @ 30000: uvm_test_top.env.agt.drv [DISPATCH_TRACE] Queued item, txn_sel=11
UVM_INFO axi4l_driver.sv(33) @ 30000: uvm_test_top.env.agt.drv [DISPATCH_TRACE] Queued item, txn_sel=11
UVM_INFO axi4l_driver.sv(33) @ 30000: uvm_test_top.env.agt.drv [DISPATCH_TRACE] Queued item, txn_sel=10
UVM_INFO axi4l_driver.sv(33) @ 30000: uvm_test_top.env.agt.drv [DISPATCH_TRACE] Queued item, txn_sel=10
UVM_INFO axi4l_driver.sv(33) @ 30000: uvm_test_top.env.agt.drv [DISPATCH_TRACE] Queued item, txn_sel=0
UVM_INFO axi4l_driver.sv(33) @ 30000: uvm_test_top.env.agt.drv [DISPATCH_TRACE] Queued item, txn_sel=1
UVM_INFO axi4l_driver.sv(33) @ 30000: uvm_test_top.env.agt.drv [DISPATCH_TRACE] Queued item, txn_sel=0
UVM_INFO axi4l_driver.sv(33) @ 30000: uvm_test_top.env.agt.drv [DISPATCH_TRACE] Queued item, txn_sel=11
UVM_INFO axi4l_driver.sv(33) @ 30000: uvm_test_top.env.agt.drv [DISPATCH_TRACE] Queued item, txn_sel=11
UVM_INFO axi4l_driver.sv(33) @ 30000: uvm_test_top.env.agt.drv [DISPATCH_TRACE] Queued item, txn_sel=0
UVM_INFO axi4l_driver.sv(33) @ 30000: uvm_test_top.env.agt.drv [DISPATCH_TRACE] Queued item, txn_sel=1
UVM_INFO axi4l_driver.sv(33) @ 30000: uvm_test_top.env.agt.drv [DISPATCH_TRACE] Queued item, txn_sel=11
UVM_INFO axi4l_driver.sv(33) @ 30000: uvm_test_top.env.agt.drv [DISPATCH_TRACE] Queued item, txn_sel=11
UVM_INFO axi4l_driver.sv(33) @ 30000: uvm_test_top.env.agt.drv [DISPATCH_TRACE] Queued item, txn_sel=10
UVM_INFO axi4l_driver.sv(33) @ 30000: uvm_test_top.env.agt.drv [DISPATCH_TRACE] Queued item, txn_sel=0
UVM_INFO axi4l_driver.sv(33) @ 30000: uvm_test_top.env.agt.drv [DISPATCH_TRACE] Queued item, txn_sel=10
UVM_INFO axi4l_driver.sv(33) @ 30000: uvm_test_top.env.agt.drv [DISPATCH_TRACE] Queued item, txn_sel=0
UVM_INFO axi4l_driver.sv(33) @ 30000: uvm_test_top.env.agt.drv [DISPATCH_TRACE] Queued item, txn_sel=1
UVM_INFO axi4l_driver.sv(33) @ 30000: uvm_test_top.env.agt.drv [DISPATCH_TRACE] Queued item, txn_sel=11
UVM_INFO axi4l_driver.sv(33) @ 30000: uvm_test_top.env.agt.drv [DISPATCH_TRACE] Queued item, txn_sel=1
UVM_INFO axi4l_driver.sv(33) @ 30000: uvm_test_top.env.agt.drv [DISPATCH_TRACE] Queued item, txn_sel=1
UVM_INFO axi4l_driver.sv(33) @ 30000: uvm_test_top.env.agt.drv [DISPATCH_TRACE] Queued item, txn_sel=0
UVM_INFO axi4l_driver.sv(33) @ 30000: uvm_test_top.env.agt.drv [DISPATCH_TRACE] Queued item, txn_sel=10
UVM_INFO axi4l_driver.sv(33) @ 30000: uvm_test_top.env.agt.drv [DISPATCH_TRACE] Queued item, txn_sel=0
UVM_INFO axi4l_driver.sv(33) @ 30000: uvm_test_top.env.agt.drv [DISPATCH_TRACE] Queued item, txn_sel=0
UVM_INFO axi4l_driver.sv(33) @ 30000: uvm_test_top.env.agt.drv [DISPATCH_TRACE] Queued item, txn_sel=10
UVM_INFO axi4l_driver.sv(33) @ 30000: uvm_test_top.env.agt.drv [DISPATCH_TRACE] Queued item, txn_sel=10
UVM_INFO axi4l_driver.sv(33) @ 30000: uvm_test_top.env.agt.drv [DISPATCH_TRACE] Queued item, txn_sel=10
UVM_INFO axi4l_driver.sv(33) @ 30000: uvm_test_top.env.agt.drv [DISPATCH_TRACE] Queued item, txn_sel=1
UVM_INFO axi4l_driver.sv(33) @ 30000: uvm_test_top.env.agt.drv [DISPATCH_TRACE] Queued item, txn_sel=0
UVM_INFO axi4l_driver.sv(33) @ 30000: uvm_test_top.env.agt.drv [DISPATCH_TRACE] Queued item, txn_sel=10
UVM_INFO axi4l_driver.sv(33) @ 30000: uvm_test_top.env.agt.drv [DISPATCH_TRACE] Queued item, txn_sel=10
UVM_INFO axi4l_driver.sv(33) @ 30000: uvm_test_top.env.agt.drv [DISPATCH_TRACE] Queued item, txn_sel=10
UVM_INFO axi4l_driver.sv(33) @ 30000: uvm_test_top.env.agt.drv [DISPATCH_TRACE] Queued item, txn_sel=10
UVM_INFO axi4l_driver.sv(33) @ 30000: uvm_test_top.env.agt.drv [DISPATCH_TRACE] Queued item, txn_sel=0
UVM_INFO axi4l_driver.sv(33) @ 30000: uvm_test_top.env.agt.drv [DISPATCH_TRACE] Queued item, txn_sel=11
UVM_INFO axi4l_driver.sv(33) @ 30000: uvm_test_top.env.agt.drv [DISPATCH_TRACE] Queued item, txn_sel=11
UVM_INFO axi4l_driver.sv(33) @ 30000: uvm_test_top.env.agt.drv [DISPATCH_TRACE] Queued item, txn_sel=0
UVM_INFO axi4l_driver.sv(33) @ 30000: uvm_test_top.env.agt.drv [DISPATCH_TRACE] Queued item, txn_sel=10
UVM_INFO axi4l_driver.sv(33) @ 30000: uvm_test_top.env.agt.drv [DISPATCH_TRACE] Queued item, txn_sel=1
UVM_INFO axi4l_driver.sv(33) @ 30000: uvm_test_top.env.agt.drv [DISPATCH_TRACE] Queued item, txn_sel=1
UVM_INFO axi4l_driver.sv(33) @ 30000: uvm_test_top.env.agt.drv [DISPATCH_TRACE] Queued item, txn_sel=0
UVM_INFO axi4l_driver.sv(33) @ 30000: uvm_test_top.env.agt.drv [DISPATCH_TRACE] Queued item, txn_sel=10
UVM_INFO axi4l_driver.sv(33) @ 30000: uvm_test_top.env.agt.drv [DISPATCH_TRACE] Queued item, txn_sel=10
UVM_INFO axi4l_driver.sv(33) @ 30000: uvm_test_top.env.agt.drv [DISPATCH_TRACE] Queued item, txn_sel=0
UVM_INFO axi4l_driver.sv(33) @ 30000: uvm_test_top.env.agt.drv [DISPATCH_TRACE] Queued item, txn_sel=1
UVM_INFO axi4l_driver.sv(33) @ 30000: uvm_test_top.env.agt.drv [DISPATCH_TRACE] Queued item, txn_sel=10
UVM_INFO axi4l_driver.sv(33) @ 30000: uvm_test_top.env.agt.drv [DISPATCH_TRACE] Queued item, txn_sel=10
UVM_INFO axi4l_driver.sv(33) @ 30000: uvm_test_top.env.agt.drv [DISPATCH_TRACE] Queued item, txn_sel=1
UVM_INFO axi4l_driver.sv(33) @ 30000: uvm_test_top.env.agt.drv [DISPATCH_TRACE] Queued item, txn_sel=0
UVM_INFO axi4l_driver.sv(33) @ 30000: uvm_test_top.env.agt.drv [DISPATCH_TRACE] Queued item, txn_sel=11
UVM_INFO axi4l_driver.sv(33) @ 30000: uvm_test_top.env.agt.drv [DISPATCH_TRACE] Queued item, txn_sel=11
UVM_INFO axi4l_driver.sv(33) @ 30000: uvm_test_top.env.agt.drv [DISPATCH_TRACE] Queued item, txn_sel=0
UVM_INFO axi4l_driver.sv(33) @ 30000: uvm_test_top.env.agt.drv [DISPATCH_TRACE] Queued item, txn_sel=10
UVM_INFO axi4l_driver.sv(33) @ 30000: uvm_test_top.env.agt.drv [DISPATCH_TRACE] Queued item, txn_sel=1
UVM_INFO axi4l_driver.sv(33) @ 30000: uvm_test_top.env.agt.drv [DISPATCH_TRACE] Queued item, txn_sel=10
UVM_INFO axi4l_driver.sv(33) @ 30000: uvm_test_top.env.agt.drv [DISPATCH_TRACE] Queued item, txn_sel=1
UVM_INFO axi4l_driver.sv(33) @ 30000: uvm_test_top.env.agt.drv [DISPATCH_TRACE] Queued item, txn_sel=10
UVM_INFO axi4l_driver.sv(33) @ 30000: uvm_test_top.env.agt.drv [DISPATCH_TRACE] Queued item, txn_sel=10
UVM_INFO axi4l_driver.sv(33) @ 30000: uvm_test_top.env.agt.drv [DISPATCH_TRACE] Queued item, txn_sel=0
UVM_INFO axi4l_driver.sv(33) @ 30000: uvm_test_top.env.agt.drv [DISPATCH_TRACE] Queued item, txn_sel=10
UVM_INFO axi4l_driver.sv(33) @ 30000: uvm_test_top.env.agt.drv [DISPATCH_TRACE] Queued item, txn_sel=0
UVM_INFO axi4l_driver.sv(33) @ 30000: uvm_test_top.env.agt.drv [DISPATCH_TRACE] Queued item, txn_sel=0
UVM_INFO axi4l_driver.sv(33) @ 30000: uvm_test_top.env.agt.drv [DISPATCH_TRACE] Queued item, txn_sel=1
UVM_INFO axi4l_driver.sv(33) @ 30000: uvm_test_top.env.agt.drv [DISPATCH_TRACE] Queued item, txn_sel=0
UVM_INFO axi4l_driver.sv(33) @ 30000: uvm_test_top.env.agt.drv [DISPATCH_TRACE] Queued item, txn_sel=1
UVM_INFO axi4l_driver.sv(33) @ 30000: uvm_test_top.env.agt.drv [DISPATCH_TRACE] Queued item, txn_sel=11
UVM_INFO axi4l_driver.sv(33) @ 30000: uvm_test_top.env.agt.drv [DISPATCH_TRACE] Queued item, txn_sel=11
UVM_INFO axi4l_driver.sv(33) @ 30000: uvm_test_top.env.agt.drv [DISPATCH_TRACE] Queued item, txn_sel=0
UVM_INFO axi4l_driver.sv(33) @ 30000: uvm_test_top.env.agt.drv [DISPATCH_TRACE] Queued item, txn_sel=10
UVM_INFO axi4l_driver.sv(33) @ 30000: uvm_test_top.env.agt.drv [DISPATCH_TRACE] Queued item, txn_sel=1
UVM_INFO axi4l_driver.sv(33) @ 30000: uvm_test_top.env.agt.drv [DISPATCH_TRACE] Queued item, txn_sel=11
UVM_INFO axi4l_driver.sv(33) @ 30000: uvm_test_top.env.agt.drv [DISPATCH_TRACE] Queued item, txn_sel=10
UVM_INFO axi4l_driver.sv(33) @ 30000: uvm_test_top.env.agt.drv [DISPATCH_TRACE] Queued item, txn_sel=11
UVM_INFO axi4l_driver.sv(33) @ 30000: uvm_test_top.env.agt.drv [DISPATCH_TRACE] Queued item, txn_sel=10
UVM_INFO axi4l_driver.sv(33) @ 30000: uvm_test_top.env.agt.drv [DISPATCH_TRACE] Queued item, txn_sel=1
UVM_INFO axi4l_driver.sv(33) @ 30000: uvm_test_top.env.agt.drv [DISPATCH_TRACE] Queued item, txn_sel=10
UVM_INFO axi4l_driver.sv(33) @ 30000: uvm_test_top.env.agt.drv [DISPATCH_TRACE] Queued item, txn_sel=10
UVM_INFO axi4l_driver.sv(33) @ 30000: uvm_test_top.env.agt.drv [DISPATCH_TRACE] Queued item, txn_sel=0
UVM_INFO axi4l_driver.sv(33) @ 30000: uvm_test_top.env.agt.drv [DISPATCH_TRACE] Queued item, txn_sel=0
UVM_INFO axi4l_driver.sv(33) @ 30000: uvm_test_top.env.agt.drv [DISPATCH_TRACE] Queued item, txn_sel=0
UVM_INFO axi4l_driver.sv(33) @ 30000: uvm_test_top.env.agt.drv [DISPATCH_TRACE] Queued item, txn_sel=1
UVM_INFO axi4l_driver.sv(33) @ 30000: uvm_test_top.env.agt.drv [DISPATCH_TRACE] Queued item, txn_sel=11
UVM_INFO axi4l_driver.sv(33) @ 30000: uvm_test_top.env.agt.drv [DISPATCH_TRACE] Queued item, txn_sel=0
UVM_INFO axi4l_driver.sv(33) @ 30000: uvm_test_top.env.agt.drv [DISPATCH_TRACE] Queued item, txn_sel=10
UVM_INFO axi4l_driver.sv(33) @ 30000: uvm_test_top.env.agt.drv [DISPATCH_TRACE] Queued item, txn_sel=1
UVM_INFO axi4l_driver.sv(33) @ 30000: uvm_test_top.env.agt.drv [DISPATCH_TRACE] Queued item, txn_sel=0
UVM_INFO axi4l_driver.sv(33) @ 30000: uvm_test_top.env.agt.drv [DISPATCH_TRACE] Queued item, txn_sel=11
UVM_INFO axi4l_driver.sv(33) @ 30000: uvm_test_top.env.agt.drv [DISPATCH_TRACE] Queued item, txn_sel=11
UVM_INFO axi4l_driver.sv(33) @ 30000: uvm_test_top.env.agt.drv [DISPATCH_TRACE] Queued item, txn_sel=0
UVM_INFO axi4l_driver.sv(33) @ 30000: uvm_test_top.env.agt.drv [DISPATCH_TRACE] Queued item, txn_sel=10
UVM_INFO axi4l_driver.sv(33) @ 30000: uvm_test_top.env.agt.drv [DISPATCH_TRACE] Queued item, txn_sel=1
UVM_INFO axi4l_driver.sv(33) @ 30000: uvm_test_top.env.agt.drv [DISPATCH_TRACE] Queued item, txn_sel=10
UVM_INFO axi4l_driver.sv(33) @ 30000: uvm_test_top.env.agt.drv [DISPATCH_TRACE] Queued item, txn_sel=11
UVM_INFO axi4l_driver.sv(33) @ 30000: uvm_test_top.env.agt.drv [DISPATCH_TRACE] Queued item, txn_sel=11
UVM_INFO axi4l_driver.sv(33) @ 30000: uvm_test_top.env.agt.drv [DISPATCH_TRACE] Queued item, txn_sel=11
UVM_INFO axi4l_driver.sv(33) @ 30000: uvm_test_top.env.agt.drv [DISPATCH_TRACE] Queued item, txn_sel=1
UVM_INFO axi4l_driver.sv(33) @ 30000: uvm_test_top.env.agt.drv [DISPATCH_TRACE] Queued item, txn_sel=1
UVM_INFO axi4l_driver.sv(33) @ 30000: uvm_test_top.env.agt.drv [DISPATCH_TRACE] Queued item, txn_sel=10
UVM_INFO axi4l_driver.sv(33) @ 30000: uvm_test_top.env.agt.drv [DISPATCH_TRACE] Queued item, txn_sel=11
UVM_INFO axi4l_driver.sv(33) @ 30000: uvm_test_top.env.agt.drv [DISPATCH_TRACE] Queued item, txn_sel=11
UVM_INFO axi4l_driver.sv(33) @ 30000: uvm_test_top.env.agt.drv [DISPATCH_TRACE] Queued item, txn_sel=0
UVM_INFO axi4l_driver.sv(33) @ 30000: uvm_test_top.env.agt.drv [DISPATCH_TRACE] Queued item, txn_sel=11
UVM_INFO axi4l_driver.sv(33) @ 30000: uvm_test_top.env.agt.drv [DISPATCH_TRACE] Queued item, txn_sel=0
UVM_INFO axi4l_driver.sv(33) @ 30000: uvm_test_top.env.agt.drv [DISPATCH_TRACE] Queued item, txn_sel=0
UVM_INFO axi4l_driver.sv(33) @ 30000: uvm_test_top.env.agt.drv [DISPATCH_TRACE] Queued item, txn_sel=11
UVM_INFO axi4l_driver.sv(33) @ 30000: uvm_test_top.env.agt.drv [DISPATCH_TRACE] Queued item, txn_sel=11
UVM_INFO axi4l_driver.sv(33) @ 30000: uvm_test_top.env.agt.drv [DISPATCH_TRACE] Queued item, txn_sel=10
UVM_INFO axi4l_driver.sv(33) @ 30000: uvm_test_top.env.agt.drv [DISPATCH_TRACE] Queued item, txn_sel=0
UVM_INFO axi4l_driver.sv(33) @ 30000: uvm_test_top.env.agt.drv [DISPATCH_TRACE] Queued item, txn_sel=0
UVM_INFO axi4l_driver.sv(33) @ 30000: uvm_test_top.env.agt.drv [DISPATCH_TRACE] Queued item, txn_sel=1
UVM_INFO axi4l_driver.sv(33) @ 30000: uvm_test_top.env.agt.drv [DISPATCH_TRACE] Queued item, txn_sel=0
UVM_INFO axi4l_driver.sv(33) @ 30000: uvm_test_top.env.agt.drv [DISPATCH_TRACE] Queued item, txn_sel=0
UVM_INFO axi4l_driver.sv(33) @ 30000: uvm_test_top.env.agt.drv [DISPATCH_TRACE] Queued item, txn_sel=11
UVM_INFO axi4l_driver.sv(33) @ 30000: uvm_test_top.env.agt.drv [DISPATCH_TRACE] Queued item, txn_sel=10
UVM_INFO axi4l_driver.sv(33) @ 30000: uvm_test_top.env.agt.drv [DISPATCH_TRACE] Queued item, txn_sel=1
UVM_INFO axi4l_driver.sv(33) @ 30000: uvm_test_top.env.agt.drv [DISPATCH_TRACE] Queued item, txn_sel=10
UVM_INFO axi4l_driver.sv(33) @ 30000: uvm_test_top.env.agt.drv [DISPATCH_TRACE] Queued item, txn_sel=0
UVM_INFO axi4l_driver.sv(33) @ 30000: uvm_test_top.env.agt.drv [DISPATCH_TRACE] Queued item, txn_sel=0
UVM_INFO axi4l_driver.sv(33) @ 30000: uvm_test_top.env.agt.drv [DISPATCH_TRACE] Queued item, txn_sel=11
UVM_INFO axi4l_driver.sv(33) @ 30000: uvm_test_top.env.agt.drv [DISPATCH_TRACE] Queued item, txn_sel=10
UVM_INFO axi4l_driver.sv(33) @ 30000: uvm_test_top.env.agt.drv [DISPATCH_TRACE] Queued item, txn_sel=11
UVM_INFO axi4l_driver.sv(33) @ 30000: uvm_test_top.env.agt.drv [DISPATCH_TRACE] Queued item, txn_sel=10
UVM_INFO axi4l_driver.sv(33) @ 30000: uvm_test_top.env.agt.drv [DISPATCH_TRACE] Queued item, txn_sel=0
UVM_INFO axi4l_driver.sv(33) @ 30000: uvm_test_top.env.agt.drv [DISPATCH_TRACE] Queued item, txn_sel=11
UVM_INFO axi4l_driver.sv(33) @ 30000: uvm_test_top.env.agt.drv [DISPATCH_TRACE] Queued item, txn_sel=1
UVM_INFO axi4l_driver.sv(33) @ 30000: uvm_test_top.env.agt.drv [DISPATCH_TRACE] Queued item, txn_sel=10
UVM_INFO axi4l_driver.sv(33) @ 30000: uvm_test_top.env.agt.drv [DISPATCH_TRACE] Queued item, txn_sel=10
UVM_INFO axi4l_driver.sv(33) @ 30000: uvm_test_top.env.agt.drv [DISPATCH_TRACE] Queued item, txn_sel=1
UVM_INFO axi4l_driver.sv(33) @ 30000: uvm_test_top.env.agt.drv [DISPATCH_TRACE] Queued item, txn_sel=11
UVM_INFO axi4l_driver.sv(33) @ 30000: uvm_test_top.env.agt.drv [DISPATCH_TRACE] Queued item, txn_sel=1
UVM_INFO axi4l_driver.sv(33) @ 30000: uvm_test_top.env.agt.drv [DISPATCH_TRACE] Queued item, txn_sel=0
UVM_INFO axi4l_driver.sv(33) @ 30000: uvm_test_top.env.agt.drv [DISPATCH_TRACE] Queued item, txn_sel=1
UVM_INFO axi4l_driver.sv(33) @ 30000: uvm_test_top.env.agt.drv [DISPATCH_TRACE] Queued item, txn_sel=10
UVM_INFO axi4l_driver.sv(33) @ 30000: uvm_test_top.env.agt.drv [DISPATCH_TRACE] Queued item, txn_sel=10
UVM_INFO axi4l_driver.sv(33) @ 30000: uvm_test_top.env.agt.drv [DISPATCH_TRACE] Queued item, txn_sel=0
UVM_INFO axi4l_driver.sv(33) @ 30000: uvm_test_top.env.agt.drv [DISPATCH_TRACE] Queued item, txn_sel=10
UVM_INFO axi4l_driver.sv(33) @ 30000: uvm_test_top.env.agt.drv [DISPATCH_TRACE] Queued item, txn_sel=1
UVM_INFO axi4l_driver.sv(33) @ 30000: uvm_test_top.env.agt.drv [DISPATCH_TRACE] Queued item, txn_sel=11
UVM_INFO axi4l_driver.sv(33) @ 30000: uvm_test_top.env.agt.drv [DISPATCH_TRACE] Queued item, txn_sel=0
UVM_INFO axi4l_driver.sv(33) @ 30000: uvm_test_top.env.agt.drv [DISPATCH_TRACE] Queued item, txn_sel=1
UVM_INFO axi4l_driver.sv(33) @ 30000: uvm_test_top.env.agt.drv [DISPATCH_TRACE] Queued item, txn_sel=11
UVM_INFO axi4l_driver.sv(33) @ 30000: uvm_test_top.env.agt.drv [DISPATCH_TRACE] Queued item, txn_sel=11
UVM_INFO axi4l_driver.sv(33) @ 30000: uvm_test_top.env.agt.drv [DISPATCH_TRACE] Queued item, txn_sel=11
UVM_INFO axi4l_driver.sv(33) @ 30000: uvm_test_top.env.agt.drv [DISPATCH_TRACE] Queued item, txn_sel=11
UVM_INFO axi4l_driver.sv(33) @ 30000: uvm_test_top.env.agt.drv [DISPATCH_TRACE] Queued item, txn_sel=10
UVM_INFO axi4l_driver.sv(33) @ 30000: uvm_test_top.env.agt.drv [DISPATCH_TRACE] Queued item, txn_sel=10
UVM_INFO axi4l_driver.sv(33) @ 30000: uvm_test_top.env.agt.drv [DISPATCH_TRACE] Queued item, txn_sel=1
UVM_INFO axi4l_driver.sv(33) @ 30000: uvm_test_top.env.agt.drv [DISPATCH_TRACE] Queued item, txn_sel=1
UVM_INFO axi4l_driver.sv(33) @ 30000: uvm_test_top.env.agt.drv [DISPATCH_TRACE] Queued item, txn_sel=0
UVM_INFO axi4l_driver.sv(33) @ 30000: uvm_test_top.env.agt.drv [DISPATCH_TRACE] Queued item, txn_sel=1
UVM_INFO axi4l_driver.sv(33) @ 30000: uvm_test_top.env.agt.drv [DISPATCH_TRACE] Queued item, txn_sel=1
UVM_INFO axi4l_driver.sv(33) @ 30000: uvm_test_top.env.agt.drv [DISPATCH_TRACE] Queued item, txn_sel=0
UVM_INFO axi4l_driver.sv(33) @ 30000: uvm_test_top.env.agt.drv [DISPATCH_TRACE] Queued item, txn_sel=1
UVM_INFO axi4l_driver.sv(33) @ 30000: uvm_test_top.env.agt.drv [DISPATCH_TRACE] Queued item, txn_sel=0
UVM_INFO axi4l_driver.sv(33) @ 30000: uvm_test_top.env.agt.drv [DISPATCH_TRACE] Queued item, txn_sel=11
UVM_INFO axi4l_driver.sv(33) @ 30000: uvm_test_top.env.agt.drv [DISPATCH_TRACE] Queued item, txn_sel=11
UVM_INFO axi4l_driver.sv(33) @ 30000: uvm_test_top.env.agt.drv [DISPATCH_TRACE] Queued item, txn_sel=10
UVM_INFO axi4l_driver.sv(33) @ 30000: uvm_test_top.env.agt.drv [DISPATCH_TRACE] Queued item, txn_sel=10
UVM_INFO axi4l_driver.sv(33) @ 30000: uvm_test_top.env.agt.drv [DISPATCH_TRACE] Queued item, txn_sel=11
UVM_INFO axi4l_driver.sv(33) @ 30000: uvm_test_top.env.agt.drv [DISPATCH_TRACE] Queued item, txn_sel=1
UVM_INFO axi4l_driver.sv(33) @ 30000: uvm_test_top.env.agt.drv [DISPATCH_TRACE] Queued item, txn_sel=1
UVM_INFO axi4l_driver.sv(33) @ 30000: uvm_test_top.env.agt.drv [DISPATCH_TRACE] Queued item, txn_sel=11
UVM_INFO axi4l_driver.sv(33) @ 30000: uvm_test_top.env.agt.drv [DISPATCH_TRACE] Queued item, txn_sel=11
UVM_INFO axi4l_driver.sv(33) @ 30000: uvm_test_top.env.agt.drv [DISPATCH_TRACE] Queued item, txn_sel=10
UVM_INFO axi4l_driver.sv(33) @ 30000: uvm_test_top.env.agt.drv [DISPATCH_TRACE] Queued item, txn_sel=1
UVM_INFO axi4l_driver.sv(33) @ 30000: uvm_test_top.env.agt.drv [DISPATCH_TRACE] Queued item, txn_sel=0
UVM_INFO axi4l_driver.sv(33) @ 30000: uvm_test_top.env.agt.drv [DISPATCH_TRACE] Queued item, txn_sel=0
UVM_INFO axi4l_driver.sv(33) @ 30000: uvm_test_top.env.agt.drv [DISPATCH_TRACE] Queued item, txn_sel=1
UVM_INFO axi4l_driver.sv(33) @ 30000: uvm_test_top.env.agt.drv [DISPATCH_TRACE] Queued item, txn_sel=1
UVM_INFO axi4l_driver.sv(33) @ 30000: uvm_test_top.env.agt.drv [DISPATCH_TRACE] Queued item, txn_sel=10
UVM_INFO axi4l_driver.sv(33) @ 30000: uvm_test_top.env.agt.drv [DISPATCH_TRACE] Queued item, txn_sel=1
UVM_INFO axi4l_driver.sv(33) @ 30000: uvm_test_top.env.agt.drv [DISPATCH_TRACE] Queued item, txn_sel=1
UVM_INFO axi4l_driver.sv(33) @ 30000: uvm_test_top.env.agt.drv [DISPATCH_TRACE] Queued item, txn_sel=1
UVM_INFO axi4l_driver.sv(33) @ 30000: uvm_test_top.env.agt.drv [DISPATCH_TRACE] Queued item, txn_sel=0
UVM_INFO axi4l_driver.sv(33) @ 30000: uvm_test_top.env.agt.drv [DISPATCH_TRACE] Queued item, txn_sel=1
UVM_INFO axi4l_driver.sv(33) @ 30000: uvm_test_top.env.agt.drv [DISPATCH_TRACE] Queued item, txn_sel=0
UVM_INFO axi4l_driver.sv(33) @ 30000: uvm_test_top.env.agt.drv [DISPATCH_TRACE] Queued item, txn_sel=11
UVM_INFO axi4l_driver.sv(33) @ 30000: uvm_test_top.env.agt.drv [DISPATCH_TRACE] Queued item, txn_sel=1
UVM_INFO axi4l_driver.sv(33) @ 30000: uvm_test_top.env.agt.drv [DISPATCH_TRACE] Queued item, txn_sel=1
UVM_INFO axi4l_driver.sv(33) @ 30000: uvm_test_top.env.agt.drv [DISPATCH_TRACE] Queued item, txn_sel=10
UVM_INFO axi4l_driver.sv(33) @ 30000: uvm_test_top.env.agt.drv [DISPATCH_TRACE] Queued item, txn_sel=0
UVM_INFO axi4l_driver.sv(33) @ 30000: uvm_test_top.env.agt.drv [DISPATCH_TRACE] Queued item, txn_sel=11
UVM_INFO axi4l_driver.sv(33) @ 30000: uvm_test_top.env.agt.drv [DISPATCH_TRACE] Queued item, txn_sel=1
UVM_INFO axi4l_driver.sv(33) @ 30000: uvm_test_top.env.agt.drv [DISPATCH_TRACE] Queued item, txn_sel=10
UVM_INFO axi4l_driver.sv(33) @ 30000: uvm_test_top.env.agt.drv [DISPATCH_TRACE] Queued item, txn_sel=11
UVM_INFO axi4l_driver.sv(33) @ 30000: uvm_test_top.env.agt.drv [DISPATCH_TRACE] Queued item, txn_sel=0
UVM_INFO axi4l_driver.sv(33) @ 30000: uvm_test_top.env.agt.drv [DISPATCH_TRACE] Queued item, txn_sel=1
UVM_INFO axi4l_driver.sv(33) @ 30000: uvm_test_top.env.agt.drv [DISPATCH_TRACE] Queued item, txn_sel=10
UVM_INFO axi4l_driver.sv(33) @ 30000: uvm_test_top.env.agt.drv [DISPATCH_TRACE] Queued item, txn_sel=0
UVM_INFO axi4l_driver.sv(33) @ 30000: uvm_test_top.env.agt.drv [DISPATCH_TRACE] Queued item, txn_sel=1
UVM_INFO axi4l_driver.sv(33) @ 30000: uvm_test_top.env.agt.drv [DISPATCH_TRACE] Queued item, txn_sel=10
UVM_INFO axi4l_driver.sv(33) @ 30000: uvm_test_top.env.agt.drv [DISPATCH_TRACE] Queued item, txn_sel=1
UVM_INFO axi4l_driver.sv(33) @ 30000: uvm_test_top.env.agt.drv [DISPATCH_TRACE] Queued item, txn_sel=1
UVM_INFO axi4l_driver.sv(33) @ 30000: uvm_test_top.env.agt.drv [DISPATCH_TRACE] Queued item, txn_sel=1
UVM_INFO axi4l_driver.sv(33) @ 30000: uvm_test_top.env.agt.drv [DISPATCH_TRACE] Queued item, txn_sel=11
UVM_INFO axi4l_driver.sv(33) @ 30000: uvm_test_top.env.agt.drv [DISPATCH_TRACE] Queued item, txn_sel=0
UVM_INFO axi4l_driver.sv(33) @ 30000: uvm_test_top.env.agt.drv [DISPATCH_TRACE] Queued item, txn_sel=0
UVM_INFO axi4l_driver.sv(33) @ 30000: uvm_test_top.env.agt.drv [DISPATCH_TRACE] Queued item, txn_sel=10
UVM_INFO axi4l_driver.sv(33) @ 30000: uvm_test_top.env.agt.drv [DISPATCH_TRACE] Queued item, txn_sel=1
UVM_INFO axi4l_driver.sv(33) @ 30000: uvm_test_top.env.agt.drv [DISPATCH_TRACE] Queued item, txn_sel=0
UVM_INFO axi4l_driver.sv(33) @ 30000: uvm_test_top.env.agt.drv [DISPATCH_TRACE] Queued item, txn_sel=1
UVM_INFO axi4l_driver.sv(33) @ 30000: uvm_test_top.env.agt.drv [DISPATCH_TRACE] Queued item, txn_sel=1
UVM_INFO axi4l_driver.sv(33) @ 30000: uvm_test_top.env.agt.drv [DISPATCH_TRACE] Queued item, txn_sel=11
UVM_INFO axi4l_driver.sv(33) @ 30000: uvm_test_top.env.agt.drv [DISPATCH_TRACE] Queued item, txn_sel=0
UVM_INFO axi4l_driver.sv(33) @ 30000: uvm_test_top.env.agt.drv [DISPATCH_TRACE] Queued item, txn_sel=0
UVM_INFO axi4l_driver.sv(33) @ 30000: uvm_test_top.env.agt.drv [DISPATCH_TRACE] Queued item, txn_sel=0
UVM_INFO axi4l_driver.sv(33) @ 30000: uvm_test_top.env.agt.drv [DISPATCH_TRACE] Queued item, txn_sel=10
UVM_INFO axi4l_driver.sv(33) @ 30000: uvm_test_top.env.agt.drv [DISPATCH_TRACE] Queued item, txn_sel=0
UVM_INFO axi4l_driver.sv(33) @ 30000: uvm_test_top.env.agt.drv [DISPATCH_TRACE] Queued item, txn_sel=10
UVM_INFO axi4l_driver.sv(33) @ 30000: uvm_test_top.env.agt.drv [DISPATCH_TRACE] Queued item, txn_sel=11
UVM_INFO axi4l_driver.sv(33) @ 30000: uvm_test_top.env.agt.drv [DISPATCH_TRACE] Queued item, txn_sel=10
UVM_INFO axi4l_driver.sv(33) @ 30000: uvm_test_top.env.agt.drv [DISPATCH_TRACE] Queued item, txn_sel=1
UVM_INFO axi4l_driver.sv(33) @ 30000: uvm_test_top.env.agt.drv [DISPATCH_TRACE] Queued item, txn_sel=0
UVM_INFO axi4l_driver.sv(33) @ 30000: uvm_test_top.env.agt.drv [DISPATCH_TRACE] Queued item, txn_sel=0
UVM_INFO axi4l_driver.sv(33) @ 30000: uvm_test_top.env.agt.drv [DISPATCH_TRACE] Queued item, txn_sel=11
UVM_INFO axi4l_driver.sv(33) @ 30000: uvm_test_top.env.agt.drv [DISPATCH_TRACE] Queued item, txn_sel=10
UVM_INFO axi4l_driver.sv(33) @ 30000: uvm_test_top.env.agt.drv [DISPATCH_TRACE] Queued item, txn_sel=1
UVM_INFO axi4l_driver.sv(33) @ 30000: uvm_test_top.env.agt.drv [DISPATCH_TRACE] Queued item, txn_sel=11
UVM_INFO axi4l_driver.sv(33) @ 30000: uvm_test_top.env.agt.drv [DISPATCH_TRACE] Queued item, txn_sel=0
UVM_INFO axi4l_driver.sv(33) @ 30000: uvm_test_top.env.agt.drv [DISPATCH_TRACE] Queued item, txn_sel=1
UVM_INFO axi4l_driver.sv(33) @ 30000: uvm_test_top.env.agt.drv [DISPATCH_TRACE] Queued item, txn_sel=1
UVM_INFO axi4l_driver.sv(33) @ 30000: uvm_test_top.env.agt.drv [DISPATCH_TRACE] Queued item, txn_sel=11
UVM_INFO axi4l_driver.sv(33) @ 30000: uvm_test_top.env.agt.drv [DISPATCH_TRACE] Queued item, txn_sel=1
UVM_INFO axi4l_driver.sv(33) @ 30000: uvm_test_top.env.agt.drv [DISPATCH_TRACE] Queued item, txn_sel=0
UVM_INFO axi4l_driver.sv(33) @ 30000: uvm_test_top.env.agt.drv [DISPATCH_TRACE] Queued item, txn_sel=10
UVM_INFO axi4l_driver.sv(33) @ 30000: uvm_test_top.env.agt.drv [DISPATCH_TRACE] Queued item, txn_sel=0
UVM_INFO axi4l_driver.sv(33) @ 30000: uvm_test_top.env.agt.drv [DISPATCH_TRACE] Queued item, txn_sel=0
UVM_INFO axi4l_driver.sv(33) @ 30000: uvm_test_top.env.agt.drv [DISPATCH_TRACE] Queued item, txn_sel=1
UVM_INFO axi4l_driver.sv(33) @ 30000: uvm_test_top.env.agt.drv [DISPATCH_TRACE] Queued item, txn_sel=11
UVM_INFO axi4l_driver.sv(33) @ 30000: uvm_test_top.env.agt.drv [DISPATCH_TRACE] Queued item, txn_sel=1
UVM_INFO axi4l_driver.sv(33) @ 30000: uvm_test_top.env.agt.drv [DISPATCH_TRACE] Queued item, txn_sel=0
UVM_INFO axi4l_driver.sv(33) @ 30000: uvm_test_top.env.agt.drv [DISPATCH_TRACE] Queued item, txn_sel=10
UVM_INFO axi4l_driver.sv(33) @ 30000: uvm_test_top.env.agt.drv [DISPATCH_TRACE] Queued item, txn_sel=10
UVM_INFO axi4l_driver.sv(33) @ 30000: uvm_test_top.env.agt.drv [DISPATCH_TRACE] Queued item, txn_sel=10
UVM_INFO axi4l_driver.sv(33) @ 30000: uvm_test_top.env.agt.drv [DISPATCH_TRACE] Queued item, txn_sel=10
UVM_INFO axi4l_driver.sv(33) @ 30000: uvm_test_top.env.agt.drv [DISPATCH_TRACE] Queued item, txn_sel=0
UVM_INFO axi4l_driver.sv(33) @ 30000: uvm_test_top.env.agt.drv [DISPATCH_TRACE] Queued item, txn_sel=1
UVM_INFO axi4l_driver.sv(33) @ 30000: uvm_test_top.env.agt.drv [DISPATCH_TRACE] Queued item, txn_sel=1
UVM_INFO axi4l_driver.sv(33) @ 30000: uvm_test_top.env.agt.drv [DISPATCH_TRACE] Queued item, txn_sel=0
UVM_INFO axi4l_driver.sv(33) @ 30000: uvm_test_top.env.agt.drv [DISPATCH_TRACE] Queued item, txn_sel=0
UVM_INFO axi4l_driver.sv(33) @ 30000: uvm_test_top.env.agt.drv [DISPATCH_TRACE] Queued item, txn_sel=10
UVM_INFO axi4l_driver.sv(33) @ 30000: uvm_test_top.env.agt.drv [DISPATCH_TRACE] Queued item, txn_sel=10
UVM_INFO axi4l_driver.sv(33) @ 30000: uvm_test_top.env.agt.drv [DISPATCH_TRACE] Queued item, txn_sel=11
UVM_INFO axi4l_driver.sv(33) @ 30000: uvm_test_top.env.agt.drv [DISPATCH_TRACE] Queued item, txn_sel=10
UVM_INFO axi4l_driver.sv(33) @ 30000: uvm_test_top.env.agt.drv [DISPATCH_TRACE] Queued item, txn_sel=10
UVM_INFO axi4l_driver.sv(33) @ 30000: uvm_test_top.env.agt.drv [DISPATCH_TRACE] Queued item, txn_sel=1
UVM_INFO axi4l_driver.sv(33) @ 30000: uvm_test_top.env.agt.drv [DISPATCH_TRACE] Queued item, txn_sel=10
UVM_INFO axi4l_driver.sv(33) @ 30000: uvm_test_top.env.agt.drv [DISPATCH_TRACE] Queued item, txn_sel=11
UVM_INFO axi4l_driver.sv(33) @ 30000: uvm_test_top.env.agt.drv [DISPATCH_TRACE] Queued item, txn_sel=0
UVM_INFO axi4l_driver.sv(33) @ 30000: uvm_test_top.env.agt.drv [DISPATCH_TRACE] Queued item, txn_sel=10
UVM_INFO axi4l_driver.sv(33) @ 30000: uvm_test_top.env.agt.drv [DISPATCH_TRACE] Queued item, txn_sel=10
UVM_INFO axi4l_driver.sv(33) @ 30000: uvm_test_top.env.agt.drv [DISPATCH_TRACE] Queued item, txn_sel=11
UVM_INFO axi4l_driver.sv(33) @ 30000: uvm_test_top.env.agt.drv [DISPATCH_TRACE] Queued item, txn_sel=0
UVM_INFO axi4l_driver.sv(33) @ 30000: uvm_test_top.env.agt.drv [DISPATCH_TRACE] Queued item, txn_sel=11
UVM_INFO axi4l_driver.sv(33) @ 30000: uvm_test_top.env.agt.drv [DISPATCH_TRACE] Queued item, txn_sel=11
UVM_INFO axi4l_driver.sv(33) @ 30000: uvm_test_top.env.agt.drv [DISPATCH_TRACE] Queued item, txn_sel=10
UVM_INFO axi4l_driver.sv(33) @ 30000: uvm_test_top.env.agt.drv [DISPATCH_TRACE] Queued item, txn_sel=1
UVM_INFO axi4l_driver.sv(33) @ 30000: uvm_test_top.env.agt.drv [DISPATCH_TRACE] Queued item, txn_sel=10
UVM_INFO axi4l_driver.sv(33) @ 30000: uvm_test_top.env.agt.drv [DISPATCH_TRACE] Queued item, txn_sel=1
UVM_INFO axi4l_driver.sv(33) @ 30000: uvm_test_top.env.agt.drv [DISPATCH_TRACE] Queued item, txn_sel=11
UVM_INFO axi4l_driver.sv(33) @ 30000: uvm_test_top.env.agt.drv [DISPATCH_TRACE] Queued item, txn_sel=10
UVM_INFO axi4l_driver.sv(33) @ 30000: uvm_test_top.env.agt.drv [DISPATCH_TRACE] Queued item, txn_sel=1
UVM_INFO axi4l_driver.sv(33) @ 30000: uvm_test_top.env.agt.drv [DISPATCH_TRACE] Queued item, txn_sel=10
UVM_INFO axi4l_driver.sv(33) @ 30000: uvm_test_top.env.agt.drv [DISPATCH_TRACE] Queued item, txn_sel=10
UVM_INFO axi4l_driver.sv(33) @ 30000: uvm_test_top.env.agt.drv [DISPATCH_TRACE] Queued item, txn_sel=10
UVM_INFO axi4l_driver.sv(33) @ 30000: uvm_test_top.env.agt.drv [DISPATCH_TRACE] Queued item, txn_sel=10
UVM_INFO axi4l_driver.sv(33) @ 30000: uvm_test_top.env.agt.drv [DISPATCH_TRACE] Queued item, txn_sel=1
UVM_INFO axi4l_driver.sv(33) @ 30000: uvm_test_top.env.agt.drv [DISPATCH_TRACE] Queued item, txn_sel=0
UVM_INFO axi4l_driver.sv(33) @ 30000: uvm_test_top.env.agt.drv [DISPATCH_TRACE] Queued item, txn_sel=11
UVM_INFO axi4l_driver.sv(33) @ 30000: uvm_test_top.env.agt.drv [DISPATCH_TRACE] Queued item, txn_sel=1
UVM_INFO axi4l_driver.sv(33) @ 30000: uvm_test_top.env.agt.drv [DISPATCH_TRACE] Queued item, txn_sel=1
UVM_INFO axi4l_driver.sv(33) @ 30000: uvm_test_top.env.agt.drv [DISPATCH_TRACE] Queued item, txn_sel=0
UVM_INFO axi4l_driver.sv(33) @ 30000: uvm_test_top.env.agt.drv [DISPATCH_TRACE] Queued item, txn_sel=0
UVM_INFO axi4l_driver.sv(33) @ 30000: uvm_test_top.env.agt.drv [DISPATCH_TRACE] Queued item, txn_sel=1
UVM_INFO axi4l_driver.sv(33) @ 30000: uvm_test_top.env.agt.drv [DISPATCH_TRACE] Queued item, txn_sel=0
UVM_INFO axi4l_driver.sv(33) @ 30000: uvm_test_top.env.agt.drv [DISPATCH_TRACE] Queued item, txn_sel=11
UVM_INFO axi4l_driver.sv(33) @ 30000: uvm_test_top.env.agt.drv [DISPATCH_TRACE] Queued item, txn_sel=11
UVM_INFO axi4l_driver.sv(33) @ 30000: uvm_test_top.env.agt.drv [DISPATCH_TRACE] Queued item, txn_sel=1
UVM_INFO axi4l_driver.sv(33) @ 30000: uvm_test_top.env.agt.drv [DISPATCH_TRACE] Queued item, txn_sel=11
UVM_INFO axi4l_driver.sv(33) @ 30000: uvm_test_top.env.agt.drv [DISPATCH_TRACE] Queued item, txn_sel=1
UVM_INFO axi4l_driver.sv(33) @ 30000: uvm_test_top.env.agt.drv [DISPATCH_TRACE] Queued item, txn_sel=0
UVM_INFO axi4l_driver.sv(33) @ 30000: uvm_test_top.env.agt.drv [DISPATCH_TRACE] Queued item, txn_sel=1
UVM_INFO axi4l_driver.sv(33) @ 30000: uvm_test_top.env.agt.drv [DISPATCH_TRACE] Queued item, txn_sel=11
UVM_INFO axi4l_driver.sv(33) @ 30000: uvm_test_top.env.agt.drv [DISPATCH_TRACE] Queued item, txn_sel=0
UVM_INFO axi4l_driver.sv(33) @ 30000: uvm_test_top.env.agt.drv [DISPATCH_TRACE] Queued item, txn_sel=10
UVM_INFO axi4l_driver.sv(33) @ 30000: uvm_test_top.env.agt.drv [DISPATCH_TRACE] Queued item, txn_sel=10
UVM_INFO axi4l_driver.sv(33) @ 30000: uvm_test_top.env.agt.drv [DISPATCH_TRACE] Queued item, txn_sel=10
UVM_INFO axi4l_driver.sv(33) @ 30000: uvm_test_top.env.agt.drv [DISPATCH_TRACE] Queued item, txn_sel=1
UVM_INFO axi4l_driver.sv(33) @ 30000: uvm_test_top.env.agt.drv [DISPATCH_TRACE] Queued item, txn_sel=10
UVM_INFO axi4l_driver.sv(33) @ 30000: uvm_test_top.env.agt.drv [DISPATCH_TRACE] Queued item, txn_sel=0
UVM_INFO axi4l_driver.sv(33) @ 30000: uvm_test_top.env.agt.drv [DISPATCH_TRACE] Queued item, txn_sel=1
UVM_INFO axi4l_driver.sv(33) @ 30000: uvm_test_top.env.agt.drv [DISPATCH_TRACE] Queued item, txn_sel=11
UVM_INFO axi4l_driver.sv(33) @ 30000: uvm_test_top.env.agt.drv [DISPATCH_TRACE] Queued item, txn_sel=1
UVM_INFO axi4l_driver.sv(33) @ 30000: uvm_test_top.env.agt.drv [DISPATCH_TRACE] Queued item, txn_sel=10
UVM_INFO axi4l_driver.sv(33) @ 30000: uvm_test_top.env.agt.drv [DISPATCH_TRACE] Queued item, txn_sel=1
UVM_INFO axi4l_driver.sv(33) @ 30000: uvm_test_top.env.agt.drv [DISPATCH_TRACE] Queued item, txn_sel=0
UVM_INFO axi4l_driver.sv(33) @ 30000: uvm_test_top.env.agt.drv [DISPATCH_TRACE] Queued item, txn_sel=0
UVM_INFO axi4l_driver.sv(33) @ 30000: uvm_test_top.env.agt.drv [DISPATCH_TRACE] Queued item, txn_sel=0
UVM_INFO axi4l_driver.sv(33) @ 30000: uvm_test_top.env.agt.drv [DISPATCH_TRACE] Queued item, txn_sel=1
UVM_INFO axi4l_driver.sv(33) @ 30000: uvm_test_top.env.agt.drv [DISPATCH_TRACE] Queued item, txn_sel=0
UVM_INFO axi4l_driver.sv(33) @ 30000: uvm_test_top.env.agt.drv [DISPATCH_TRACE] Queued item, txn_sel=0
UVM_INFO axi4l_driver.sv(33) @ 30000: uvm_test_top.env.agt.drv [DISPATCH_TRACE] Queued item, txn_sel=11
UVM_INFO axi4l_driver.sv(33) @ 30000: uvm_test_top.env.agt.drv [DISPATCH_TRACE] Queued item, txn_sel=0
UVM_INFO axi4l_driver.sv(33) @ 30000: uvm_test_top.env.agt.drv [DISPATCH_TRACE] Queued item, txn_sel=0
UVM_INFO axi4l_driver.sv(33) @ 30000: uvm_test_top.env.agt.drv [DISPATCH_TRACE] Queued item, txn_sel=11
UVM_INFO axi4l_driver.sv(33) @ 30000: uvm_test_top.env.agt.drv [DISPATCH_TRACE] Queued item, txn_sel=10
UVM_INFO axi4l_driver.sv(33) @ 30000: uvm_test_top.env.agt.drv [DISPATCH_TRACE] Queued item, txn_sel=0
UVM_INFO axi4l_driver.sv(33) @ 30000: uvm_test_top.env.agt.drv [DISPATCH_TRACE] Queued item, txn_sel=10
UVM_INFO axi4l_driver.sv(33) @ 30000: uvm_test_top.env.agt.drv [DISPATCH_TRACE] Queued item, txn_sel=1
UVM_INFO axi4l_driver.sv(33) @ 30000: uvm_test_top.env.agt.drv [DISPATCH_TRACE] Queued item, txn_sel=10
UVM_INFO axi4l_driver.sv(33) @ 30000: uvm_test_top.env.agt.drv [DISPATCH_TRACE] Queued item, txn_sel=1
UVM_INFO axi4l_driver.sv(33) @ 30000: uvm_test_top.env.agt.drv [DISPATCH_TRACE] Queued item, txn_sel=0
UVM_INFO axi4l_driver.sv(33) @ 30000: uvm_test_top.env.agt.drv [DISPATCH_TRACE] Queued item, txn_sel=0
UVM_INFO axi4l_driver.sv(33) @ 30000: uvm_test_top.env.agt.drv [DISPATCH_TRACE] Queued item, txn_sel=11
UVM_INFO axi4l_driver.sv(33) @ 30000: uvm_test_top.env.agt.drv [DISPATCH_TRACE] Queued item, txn_sel=1
UVM_INFO axi4l_driver.sv(33) @ 30000: uvm_test_top.env.agt.drv [DISPATCH_TRACE] Queued item, txn_sel=10
UVM_INFO axi4l_driver.sv(33) @ 30000: uvm_test_top.env.agt.drv [DISPATCH_TRACE] Queued item, txn_sel=0
UVM_INFO axi4l_driver.sv(33) @ 30000: uvm_test_top.env.agt.drv [DISPATCH_TRACE] Queued item, txn_sel=0
UVM_INFO axi4l_driver.sv(33) @ 30000: uvm_test_top.env.agt.drv [DISPATCH_TRACE] Queued item, txn_sel=11
UVM_INFO axi4l_driver.sv(33) @ 30000: uvm_test_top.env.agt.drv [DISPATCH_TRACE] Queued item, txn_sel=1
UVM_INFO axi4l_driver.sv(33) @ 30000: uvm_test_top.env.agt.drv [DISPATCH_TRACE] Queued item, txn_sel=10
UVM_INFO axi4l_driver.sv(33) @ 30000: uvm_test_top.env.agt.drv [DISPATCH_TRACE] Queued item, txn_sel=0
UVM_INFO axi4l_driver.sv(33) @ 30000: uvm_test_top.env.agt.drv [DISPATCH_TRACE] Queued item, txn_sel=11
UVM_INFO axi4l_driver.sv(33) @ 30000: uvm_test_top.env.agt.drv [DISPATCH_TRACE] Queued item, txn_sel=11
UVM_INFO axi4l_driver.sv(33) @ 30000: uvm_test_top.env.agt.drv [DISPATCH_TRACE] Queued item, txn_sel=0
UVM_INFO axi4l_driver.sv(33) @ 30000: uvm_test_top.env.agt.drv [DISPATCH_TRACE] Queued item, txn_sel=1
UVM_INFO axi4l_driver.sv(33) @ 30000: uvm_test_top.env.agt.drv [DISPATCH_TRACE] Queued item, txn_sel=10
UVM_INFO axi4l_driver.sv(33) @ 30000: uvm_test_top.env.agt.drv [DISPATCH_TRACE] Queued item, txn_sel=10
UVM_INFO axi4l_driver.sv(33) @ 30000: uvm_test_top.env.agt.drv [DISPATCH_TRACE] Queued item, txn_sel=10
UVM_INFO axi4l_driver.sv(33) @ 30000: uvm_test_top.env.agt.drv [DISPATCH_TRACE] Queued item, txn_sel=0
UVM_INFO axi4l_driver.sv(33) @ 30000: uvm_test_top.env.agt.drv [DISPATCH_TRACE] Queued item, txn_sel=0
UVM_INFO axi4l_driver.sv(33) @ 30000: uvm_test_top.env.agt.drv [DISPATCH_TRACE] Queued item, txn_sel=11
UVM_INFO axi4l_driver.sv(33) @ 30000: uvm_test_top.env.agt.drv [DISPATCH_TRACE] Queued item, txn_sel=11
UVM_INFO axi4l_driver.sv(33) @ 30000: uvm_test_top.env.agt.drv [DISPATCH_TRACE] Queued item, txn_sel=11
UVM_INFO axi4l_driver.sv(33) @ 30000: uvm_test_top.env.agt.drv [DISPATCH_TRACE] Queued item, txn_sel=0
UVM_INFO axi4l_driver.sv(33) @ 30000: uvm_test_top.env.agt.drv [DISPATCH_TRACE] Queued item, txn_sel=10
UVM_INFO axi4l_driver.sv(33) @ 30000: uvm_test_top.env.agt.drv [DISPATCH_TRACE] Queued item, txn_sel=1
UVM_INFO axi4l_driver.sv(33) @ 30000: uvm_test_top.env.agt.drv [DISPATCH_TRACE] Queued item, txn_sel=0
UVM_INFO axi4l_driver.sv(33) @ 30000: uvm_test_top.env.agt.drv [DISPATCH_TRACE] Queued item, txn_sel=0
UVM_INFO axi4l_driver.sv(33) @ 30000: uvm_test_top.env.agt.drv [DISPATCH_TRACE] Queued item, txn_sel=11
UVM_INFO axi4l_driver.sv(33) @ 30000: uvm_test_top.env.agt.drv [DISPATCH_TRACE] Queued item, txn_sel=1
UVM_INFO axi4l_driver.sv(33) @ 30000: uvm_test_top.env.agt.drv [DISPATCH_TRACE] Queued item, txn_sel=1
UVM_INFO axi4l_driver.sv(33) @ 30000: uvm_test_top.env.agt.drv [DISPATCH_TRACE] Queued item, txn_sel=1
UVM_INFO axi4l_driver.sv(33) @ 30000: uvm_test_top.env.agt.drv [DISPATCH_TRACE] Queued item, txn_sel=0
UVM_INFO axi4l_driver.sv(33) @ 30000: uvm_test_top.env.agt.drv [DISPATCH_TRACE] Queued item, txn_sel=1
UVM_INFO axi4l_driver.sv(33) @ 30000: uvm_test_top.env.agt.drv [DISPATCH_TRACE] Queued item, txn_sel=1
UVM_INFO axi4l_driver.sv(33) @ 30000: uvm_test_top.env.agt.drv [DISPATCH_TRACE] Queued item, txn_sel=1
UVM_INFO axi4l_driver.sv(33) @ 30000: uvm_test_top.env.agt.drv [DISPATCH_TRACE] Queued item, txn_sel=0
UVM_INFO axi4l_driver.sv(33) @ 30000: uvm_test_top.env.agt.drv [DISPATCH_TRACE] Queued item, txn_sel=11
UVM_INFO axi4l_driver.sv(33) @ 30000: uvm_test_top.env.agt.drv [DISPATCH_TRACE] Queued item, txn_sel=11
UVM_INFO axi4l_driver.sv(33) @ 30000: uvm_test_top.env.agt.drv [DISPATCH_TRACE] Queued item, txn_sel=1
UVM_INFO axi4l_driver.sv(33) @ 30000: uvm_test_top.env.agt.drv [DISPATCH_TRACE] Queued item, txn_sel=0
UVM_INFO axi4l_driver.sv(33) @ 30000: uvm_test_top.env.agt.drv [DISPATCH_TRACE] Queued item, txn_sel=11
UVM_INFO axi4l_driver.sv(33) @ 30000: uvm_test_top.env.agt.drv [DISPATCH_TRACE] Queued item, txn_sel=0
UVM_INFO axi4l_driver.sv(33) @ 30000: uvm_test_top.env.agt.drv [DISPATCH_TRACE] Queued item, txn_sel=1
UVM_INFO axi4l_driver.sv(33) @ 30000: uvm_test_top.env.agt.drv [DISPATCH_TRACE] Queued item, txn_sel=0
UVM_INFO axi4l_driver.sv(33) @ 30000: uvm_test_top.env.agt.drv [DISPATCH_TRACE] Queued item, txn_sel=11
UVM_INFO axi4l_driver.sv(33) @ 30000: uvm_test_top.env.agt.drv [DISPATCH_TRACE] Queued item, txn_sel=0
UVM_INFO axi4l_driver.sv(33) @ 30000: uvm_test_top.env.agt.drv [DISPATCH_TRACE] Queued item, txn_sel=11
UVM_INFO axi4l_driver.sv(33) @ 30000: uvm_test_top.env.agt.drv [DISPATCH_TRACE] Queued item, txn_sel=10
UVM_INFO axi4l_driver.sv(33) @ 30000: uvm_test_top.env.agt.drv [DISPATCH_TRACE] Queued item, txn_sel=0
UVM_INFO axi4l_driver.sv(33) @ 30000: uvm_test_top.env.agt.drv [DISPATCH_TRACE] Queued item, txn_sel=1
UVM_INFO axi4l_driver.sv(33) @ 30000: uvm_test_top.env.agt.drv [DISPATCH_TRACE] Queued item, txn_sel=0
UVM_INFO axi4l_driver.sv(33) @ 30000: uvm_test_top.env.agt.drv [DISPATCH_TRACE] Queued item, txn_sel=0
UVM_INFO axi4l_driver.sv(33) @ 30000: uvm_test_top.env.agt.drv [DISPATCH_TRACE] Queued item, txn_sel=11
UVM_INFO axi4l_driver.sv(33) @ 30000: uvm_test_top.env.agt.drv [DISPATCH_TRACE] Queued item, txn_sel=10
UVM_INFO axi4l_driver.sv(33) @ 30000: uvm_test_top.env.agt.drv [DISPATCH_TRACE] Queued item, txn_sel=10
UVM_INFO axi4l_driver.sv(33) @ 30000: uvm_test_top.env.agt.drv [DISPATCH_TRACE] Queued item, txn_sel=0
UVM_INFO axi4l_driver.sv(33) @ 30000: uvm_test_top.env.agt.drv [DISPATCH_TRACE] Queued item, txn_sel=11
UVM_INFO axi4l_driver.sv(33) @ 30000: uvm_test_top.env.agt.drv [DISPATCH_TRACE] Queued item, txn_sel=10
UVM_INFO axi4l_driver.sv(33) @ 30000: uvm_test_top.env.agt.drv [DISPATCH_TRACE] Queued item, txn_sel=0
UVM_INFO axi4l_driver.sv(33) @ 30000: uvm_test_top.env.agt.drv [DISPATCH_TRACE] Queued item, txn_sel=0
UVM_INFO axi4l_driver.sv(33) @ 30000: uvm_test_top.env.agt.drv [DISPATCH_TRACE] Queued item, txn_sel=1
UVM_INFO axi4l_driver.sv(33) @ 30000: uvm_test_top.env.agt.drv [DISPATCH_TRACE] Queued item, txn_sel=0
UVM_INFO axi4l_driver.sv(33) @ 30000: uvm_test_top.env.agt.drv [DISPATCH_TRACE] Queued item, txn_sel=10
UVM_INFO axi4l_driver.sv(33) @ 30000: uvm_test_top.env.agt.drv [DISPATCH_TRACE] Queued item, txn_sel=10
UVM_INFO axi4l_driver.sv(33) @ 30000: uvm_test_top.env.agt.drv [DISPATCH_TRACE] Queued item, txn_sel=0
UVM_INFO axi4l_driver.sv(33) @ 30000: uvm_test_top.env.agt.drv [DISPATCH_TRACE] Queued item, txn_sel=1
UVM_INFO axi4l_driver.sv(33) @ 30000: uvm_test_top.env.agt.drv [DISPATCH_TRACE] Queued item, txn_sel=0
UVM_INFO axi4l_driver.sv(33) @ 30000: uvm_test_top.env.agt.drv [DISPATCH_TRACE] Queued item, txn_sel=10
UVM_INFO axi4l_driver.sv(33) @ 30000: uvm_test_top.env.agt.drv [DISPATCH_TRACE] Queued item, txn_sel=0
UVM_INFO axi4l_driver.sv(33) @ 30000: uvm_test_top.env.agt.drv [DISPATCH_TRACE] Queued item, txn_sel=1
UVM_INFO axi4l_driver.sv(33) @ 30000: uvm_test_top.env.agt.drv [DISPATCH_TRACE] Queued item, txn_sel=11
UVM_INFO axi4l_driver.sv(33) @ 30000: uvm_test_top.env.agt.drv [DISPATCH_TRACE] Queued item, txn_sel=10
UVM_INFO axi4l_driver.sv(33) @ 30000: uvm_test_top.env.agt.drv [DISPATCH_TRACE] Queued item, txn_sel=0
UVM_INFO axi4l_driver.sv(33) @ 30000: uvm_test_top.env.agt.drv [DISPATCH_TRACE] Queued item, txn_sel=11
UVM_INFO axi4l_driver.sv(33) @ 30000: uvm_test_top.env.agt.drv [DISPATCH_TRACE] Queued item, txn_sel=1
UVM_INFO axi4l_driver.sv(33) @ 30000: uvm_test_top.env.agt.drv [DISPATCH_TRACE] Queued item, txn_sel=0
UVM_INFO axi4l_driver.sv(33) @ 30000: uvm_test_top.env.agt.drv [DISPATCH_TRACE] Queued item, txn_sel=11
UVM_INFO axi4l_driver.sv(33) @ 30000: uvm_test_top.env.agt.drv [DISPATCH_TRACE] Queued item, txn_sel=0
UVM_INFO axi4l_driver.sv(33) @ 30000: uvm_test_top.env.agt.drv [DISPATCH_TRACE] Queued item, txn_sel=10
UVM_INFO axi4l_driver.sv(33) @ 30000: uvm_test_top.env.agt.drv [DISPATCH_TRACE] Queued item, txn_sel=0
UVM_INFO axi4l_driver.sv(33) @ 30000: uvm_test_top.env.agt.drv [DISPATCH_TRACE] Queued item, txn_sel=0
UVM_INFO axi4l_driver.sv(33) @ 30000: uvm_test_top.env.agt.drv [DISPATCH_TRACE] Queued item, txn_sel=1
UVM_INFO axi4l_driver.sv(33) @ 30000: uvm_test_top.env.agt.drv [DISPATCH_TRACE] Queued item, txn_sel=10
UVM_INFO axi4l_driver.sv(33) @ 30000: uvm_test_top.env.agt.drv [DISPATCH_TRACE] Queued item, txn_sel=10
UVM_INFO axi4l_driver.sv(33) @ 30000: uvm_test_top.env.agt.drv [DISPATCH_TRACE] Queued item, txn_sel=10
UVM_INFO axi4l_driver.sv(33) @ 30000: uvm_test_top.env.agt.drv [DISPATCH_TRACE] Queued item, txn_sel=11
UVM_INFO axi4l_driver.sv(33) @ 30000: uvm_test_top.env.agt.drv [DISPATCH_TRACE] Queued item, txn_sel=1
UVM_INFO axi4l_driver.sv(33) @ 30000: uvm_test_top.env.agt.drv [DISPATCH_TRACE] Queued item, txn_sel=10
UVM_INFO axi4l_driver.sv(33) @ 30000: uvm_test_top.env.agt.drv [DISPATCH_TRACE] Queued item, txn_sel=10
UVM_INFO axi4l_driver.sv(33) @ 30000: uvm_test_top.env.agt.drv [DISPATCH_TRACE] Queued item, txn_sel=11
UVM_INFO axi4l_driver.sv(33) @ 30000: uvm_test_top.env.agt.drv [DISPATCH_TRACE] Queued item, txn_sel=11
UVM_INFO axi4l_driver.sv(33) @ 30000: uvm_test_top.env.agt.drv [DISPATCH_TRACE] Queued item, txn_sel=11
UVM_INFO axi4l_driver.sv(33) @ 30000: uvm_test_top.env.agt.drv [DISPATCH_TRACE] Queued item, txn_sel=11
UVM_INFO axi4l_driver.sv(33) @ 30000: uvm_test_top.env.agt.drv [DISPATCH_TRACE] Queued item, txn_sel=1
UVM_INFO axi4l_driver.sv(33) @ 30000: uvm_test_top.env.agt.drv [DISPATCH_TRACE] Queued item, txn_sel=11
UVM_INFO axi4l_driver.sv(33) @ 30000: uvm_test_top.env.agt.drv [DISPATCH_TRACE] Queued item, txn_sel=0
UVM_INFO axi4l_driver.sv(33) @ 30000: uvm_test_top.env.agt.drv [DISPATCH_TRACE] Queued item, txn_sel=10
UVM_INFO axi4l_driver.sv(33) @ 30000: uvm_test_top.env.agt.drv [DISPATCH_TRACE] Queued item, txn_sel=0
UVM_INFO axi4l_driver.sv(33) @ 30000: uvm_test_top.env.agt.drv [DISPATCH_TRACE] Queued item, txn_sel=0
UVM_INFO axi4l_driver.sv(33) @ 30000: uvm_test_top.env.agt.drv [DISPATCH_TRACE] Queued item, txn_sel=10
UVM_INFO axi4l_driver.sv(33) @ 30000: uvm_test_top.env.agt.drv [DISPATCH_TRACE] Queued item, txn_sel=10
UVM_INFO axi4l_driver.sv(33) @ 30000: uvm_test_top.env.agt.drv [DISPATCH_TRACE] Queued item, txn_sel=0
UVM_INFO axi4l_driver.sv(33) @ 30000: uvm_test_top.env.agt.drv [DISPATCH_TRACE] Queued item, txn_sel=0
UVM_INFO axi4l_driver.sv(33) @ 30000: uvm_test_top.env.agt.drv [DISPATCH_TRACE] Queued item, txn_sel=11
UVM_INFO axi4l_driver.sv(33) @ 30000: uvm_test_top.env.agt.drv [DISPATCH_TRACE] Queued item, txn_sel=0
UVM_INFO axi4l_driver.sv(33) @ 30000: uvm_test_top.env.agt.drv [DISPATCH_TRACE] Queued item, txn_sel=1
UVM_INFO axi4l_driver.sv(33) @ 30000: uvm_test_top.env.agt.drv [DISPATCH_TRACE] Queued item, txn_sel=10
UVM_INFO axi4l_driver.sv(33) @ 30000: uvm_test_top.env.agt.drv [DISPATCH_TRACE] Queued item, txn_sel=0
UVM_INFO axi4l_driver.sv(33) @ 30000: uvm_test_top.env.agt.drv [DISPATCH_TRACE] Queued item, txn_sel=10
UVM_INFO axi4l_driver.sv(33) @ 30000: uvm_test_top.env.agt.drv [DISPATCH_TRACE] Queued item, txn_sel=11
UVM_INFO axi4l_driver.sv(33) @ 30000: uvm_test_top.env.agt.drv [DISPATCH_TRACE] Queued item, txn_sel=11
UVM_INFO axi4l_driver.sv(33) @ 30000: uvm_test_top.env.agt.drv [DISPATCH_TRACE] Queued item, txn_sel=10
UVM_INFO axi4l_driver.sv(33) @ 30000: uvm_test_top.env.agt.drv [DISPATCH_TRACE] Queued item, txn_sel=1
UVM_INFO axi4l_driver.sv(33) @ 30000: uvm_test_top.env.agt.drv [DISPATCH_TRACE] Queued item, txn_sel=10
UVM_INFO axi4l_driver.sv(33) @ 30000: uvm_test_top.env.agt.drv [DISPATCH_TRACE] Queued item, txn_sel=10
UVM_INFO axi4l_driver.sv(33) @ 30000: uvm_test_top.env.agt.drv [DISPATCH_TRACE] Queued item, txn_sel=0
UVM_INFO axi4l_driver.sv(33) @ 30000: uvm_test_top.env.agt.drv [DISPATCH_TRACE] Queued item, txn_sel=1
UVM_INFO axi4l_driver.sv(33) @ 30000: uvm_test_top.env.agt.drv [DISPATCH_TRACE] Queued item, txn_sel=11
UVM_INFO axi4l_driver.sv(33) @ 30000: uvm_test_top.env.agt.drv [DISPATCH_TRACE] Queued item, txn_sel=0
UVM_INFO axi4l_driver.sv(33) @ 30000: uvm_test_top.env.agt.drv [DISPATCH_TRACE] Queued item, txn_sel=1
UVM_INFO axi4l_driver.sv(33) @ 30000: uvm_test_top.env.agt.drv [DISPATCH_TRACE] Queued item, txn_sel=1
UVM_INFO axi4l_driver.sv(33) @ 30000: uvm_test_top.env.agt.drv [DISPATCH_TRACE] Queued item, txn_sel=11
UVM_INFO axi4l_driver.sv(33) @ 30000: uvm_test_top.env.agt.drv [DISPATCH_TRACE] Queued item, txn_sel=1
UVM_INFO axi4l_driver.sv(33) @ 30000: uvm_test_top.env.agt.drv [DISPATCH_TRACE] Queued item, txn_sel=1
UVM_INFO axi4l_driver.sv(33) @ 30000: uvm_test_top.env.agt.drv [DISPATCH_TRACE] Queued item, txn_sel=1
UVM_INFO axi4l_driver.sv(33) @ 30000: uvm_test_top.env.agt.drv [DISPATCH_TRACE] Queued item, txn_sel=10
UVM_INFO axi4l_driver.sv(33) @ 30000: uvm_test_top.env.agt.drv [DISPATCH_TRACE] Queued item, txn_sel=1
UVM_INFO axi4l_driver.sv(33) @ 30000: uvm_test_top.env.agt.drv [DISPATCH_TRACE] Queued item, txn_sel=1
UVM_INFO axi4l_driver.sv(33) @ 30000: uvm_test_top.env.agt.drv [DISPATCH_TRACE] Queued item, txn_sel=11
UVM_INFO axi4l_driver.sv(33) @ 30000: uvm_test_top.env.agt.drv [DISPATCH_TRACE] Queued item, txn_sel=11
UVM_INFO axi4l_driver.sv(33) @ 30000: uvm_test_top.env.agt.drv [DISPATCH_TRACE] Queued item, txn_sel=11
UVM_INFO axi4l_driver.sv(33) @ 30000: uvm_test_top.env.agt.drv [DISPATCH_TRACE] Queued item, txn_sel=10
UVM_INFO axi4l_driver.sv(33) @ 30000: uvm_test_top.env.agt.drv [DISPATCH_TRACE] Queued item, txn_sel=11
UVM_INFO axi4l_driver.sv(33) @ 30000: uvm_test_top.env.agt.drv [DISPATCH_TRACE] Queued item, txn_sel=1
UVM_INFO axi4l_driver.sv(33) @ 30000: uvm_test_top.env.agt.drv [DISPATCH_TRACE] Queued item, txn_sel=0
UVM_INFO axi4l_driver.sv(33) @ 30000: uvm_test_top.env.agt.drv [DISPATCH_TRACE] Queued item, txn_sel=1
UVM_INFO axi4l_driver.sv(33) @ 30000: uvm_test_top.env.agt.drv [DISPATCH_TRACE] Queued item, txn_sel=10
UVM_INFO axi4l_driver.sv(33) @ 30000: uvm_test_top.env.agt.drv [DISPATCH_TRACE] Queued item, txn_sel=10
UVM_INFO axi4l_driver.sv(33) @ 30000: uvm_test_top.env.agt.drv [DISPATCH_TRACE] Queued item, txn_sel=0
UVM_INFO axi4l_driver.sv(33) @ 30000: uvm_test_top.env.agt.drv [DISPATCH_TRACE] Queued item, txn_sel=1
UVM_INFO axi4l_driver.sv(33) @ 30000: uvm_test_top.env.agt.drv [DISPATCH_TRACE] Queued item, txn_sel=11
UVM_INFO axi4l_driver.sv(33) @ 30000: uvm_test_top.env.agt.drv [DISPATCH_TRACE] Queued item, txn_sel=10
UVM_INFO axi4l_driver.sv(33) @ 30000: uvm_test_top.env.agt.drv [DISPATCH_TRACE] Queued item, txn_sel=10
UVM_INFO axi4l_driver.sv(33) @ 30000: uvm_test_top.env.agt.drv [DISPATCH_TRACE] Queued item, txn_sel=1
UVM_INFO axi4l_driver.sv(33) @ 30000: uvm_test_top.env.agt.drv [DISPATCH_TRACE] Queued item, txn_sel=0
UVM_INFO axi4l_driver.sv(33) @ 30000: uvm_test_top.env.agt.drv [DISPATCH_TRACE] Queued item, txn_sel=11
UVM_INFO axi4l_driver.sv(33) @ 30000: uvm_test_top.env.agt.drv [DISPATCH_TRACE] Queued item, txn_sel=10
UVM_INFO axi4l_driver.sv(33) @ 30000: uvm_test_top.env.agt.drv [DISPATCH_TRACE] Queued item, txn_sel=1
UVM_INFO axi4l_driver.sv(33) @ 30000: uvm_test_top.env.agt.drv [DISPATCH_TRACE] Queued item, txn_sel=1
UVM_INFO axi4l_driver.sv(33) @ 30000: uvm_test_top.env.agt.drv [DISPATCH_TRACE] Queued item, txn_sel=1
UVM_INFO axi4l_driver.sv(33) @ 30000: uvm_test_top.env.agt.drv [DISPATCH_TRACE] Queued item, txn_sel=1
UVM_INFO axi4l_driver.sv(33) @ 30000: uvm_test_top.env.agt.drv [DISPATCH_TRACE] Queued item, txn_sel=10
UVM_INFO axi4l_driver.sv(33) @ 30000: uvm_test_top.env.agt.drv [DISPATCH_TRACE] Queued item, txn_sel=0
UVM_INFO axi4l_driver.sv(33) @ 30000: uvm_test_top.env.agt.drv [DISPATCH_TRACE] Queued item, txn_sel=11
UVM_INFO axi4l_driver.sv(33) @ 30000: uvm_test_top.env.agt.drv [DISPATCH_TRACE] Queued item, txn_sel=11
UVM_INFO axi4l_driver.sv(33) @ 30000: uvm_test_top.env.agt.drv [DISPATCH_TRACE] Queued item, txn_sel=10
UVM_INFO axi4l_driver.sv(33) @ 30000: uvm_test_top.env.agt.drv [DISPATCH_TRACE] Queued item, txn_sel=0
UVM_INFO axi4l_driver.sv(33) @ 30000: uvm_test_top.env.agt.drv [DISPATCH_TRACE] Queued item, txn_sel=10
UVM_INFO axi4l_driver.sv(33) @ 30000: uvm_test_top.env.agt.drv [DISPATCH_TRACE] Queued item, txn_sel=11
UVM_INFO axi4l_driver.sv(33) @ 30000: uvm_test_top.env.agt.drv [DISPATCH_TRACE] Queued item, txn_sel=11
UVM_INFO axi4l_driver.sv(33) @ 30000: uvm_test_top.env.agt.drv [DISPATCH_TRACE] Queued item, txn_sel=0
UVM_INFO axi4l_driver.sv(33) @ 30000: uvm_test_top.env.agt.drv [DISPATCH_TRACE] Queued item, txn_sel=10
UVM_INFO axi4l_driver.sv(33) @ 30000: uvm_test_top.env.agt.drv [DISPATCH_TRACE] Queued item, txn_sel=11
UVM_INFO axi4l_driver.sv(33) @ 30000: uvm_test_top.env.agt.drv [DISPATCH_TRACE] Queued item, txn_sel=0
UVM_INFO axi4l_driver.sv(33) @ 30000: uvm_test_top.env.agt.drv [DISPATCH_TRACE] Queued item, txn_sel=10
UVM_INFO axi4l_driver.sv(33) @ 30000: uvm_test_top.env.agt.drv [DISPATCH_TRACE] Queued item, txn_sel=0
UVM_INFO axi4l_driver.sv(33) @ 30000: uvm_test_top.env.agt.drv [DISPATCH_TRACE] Queued item, txn_sel=11
UVM_INFO axi4l_driver.sv(33) @ 30000: uvm_test_top.env.agt.drv [DISPATCH_TRACE] Queued item, txn_sel=10
UVM_INFO axi4l_driver.sv(33) @ 30000: uvm_test_top.env.agt.drv [DISPATCH_TRACE] Queued item, txn_sel=11
UVM_INFO axi4l_driver.sv(33) @ 30000: uvm_test_top.env.agt.drv [DISPATCH_TRACE] Queued item, txn_sel=1
UVM_INFO axi4l_driver.sv(33) @ 30000: uvm_test_top.env.agt.drv [DISPATCH_TRACE] Queued item, txn_sel=11
UVM_INFO axi4l_driver.sv(33) @ 30000: uvm_test_top.env.agt.drv [DISPATCH_TRACE] Queued item, txn_sel=1
UVM_INFO axi4l_driver.sv(33) @ 30000: uvm_test_top.env.agt.drv [DISPATCH_TRACE] Queued item, txn_sel=11
UVM_INFO axi4l_driver.sv(33) @ 30000: uvm_test_top.env.agt.drv [DISPATCH_TRACE] Queued item, txn_sel=0
UVM_INFO axi4l_driver.sv(33) @ 30000: uvm_test_top.env.agt.drv [DISPATCH_TRACE] Queued item, txn_sel=0
UVM_INFO axi4l_driver.sv(33) @ 30000: uvm_test_top.env.agt.drv [DISPATCH_TRACE] Queued item, txn_sel=0
UVM_INFO axi4l_driver.sv(33) @ 30000: uvm_test_top.env.agt.drv [DISPATCH_TRACE] Queued item, txn_sel=1
UVM_INFO axi4l_driver.sv(33) @ 30000: uvm_test_top.env.agt.drv [DISPATCH_TRACE] Queued item, txn_sel=10
UVM_INFO axi4l_driver.sv(33) @ 30000: uvm_test_top.env.agt.drv [DISPATCH_TRACE] Queued item, txn_sel=1
UVM_INFO axi4l_driver.sv(33) @ 30000: uvm_test_top.env.agt.drv [DISPATCH_TRACE] Queued item, txn_sel=10
UVM_INFO axi4l_driver.sv(33) @ 30000: uvm_test_top.env.agt.drv [DISPATCH_TRACE] Queued item, txn_sel=10
UVM_INFO axi4l_driver.sv(33) @ 30000: uvm_test_top.env.agt.drv [DISPATCH_TRACE] Queued item, txn_sel=0
UVM_INFO axi4l_driver.sv(33) @ 30000: uvm_test_top.env.agt.drv [DISPATCH_TRACE] Queued item, txn_sel=10
UVM_INFO axi4l_driver.sv(33) @ 30000: uvm_test_top.env.agt.drv [DISPATCH_TRACE] Queued item, txn_sel=1
UVM_INFO axi4l_driver.sv(33) @ 30000: uvm_test_top.env.agt.drv [DISPATCH_TRACE] Queued item, txn_sel=1
UVM_INFO axi4l_driver.sv(33) @ 30000: uvm_test_top.env.agt.drv [DISPATCH_TRACE] Queued item, txn_sel=11
UVM_INFO axi4l_driver.sv(33) @ 30000: uvm_test_top.env.agt.drv [DISPATCH_TRACE] Queued item, txn_sel=1
UVM_INFO axi4l_driver.sv(33) @ 30000: uvm_test_top.env.agt.drv [DISPATCH_TRACE] Queued item, txn_sel=10
UVM_INFO axi4l_driver.sv(33) @ 30000: uvm_test_top.env.agt.drv [DISPATCH_TRACE] Queued item, txn_sel=1
UVM_INFO axi4l_driver.sv(33) @ 30000: uvm_test_top.env.agt.drv [DISPATCH_TRACE] Queued item, txn_sel=1
UVM_INFO axi4l_driver.sv(33) @ 30000: uvm_test_top.env.agt.drv [DISPATCH_TRACE] Queued item, txn_sel=0
UVM_INFO axi4l_driver.sv(33) @ 30000: uvm_test_top.env.agt.drv [DISPATCH_TRACE] Queued item, txn_sel=11
UVM_INFO axi4l_driver.sv(33) @ 30000: uvm_test_top.env.agt.drv [DISPATCH_TRACE] Queued item, txn_sel=11
UVM_INFO axi4l_driver.sv(33) @ 30000: uvm_test_top.env.agt.drv [DISPATCH_TRACE] Queued item, txn_sel=11
UVM_INFO axi4l_driver.sv(33) @ 30000: uvm_test_top.env.agt.drv [DISPATCH_TRACE] Queued item, txn_sel=11
UVM_INFO axi4l_driver.sv(33) @ 30000: uvm_test_top.env.agt.drv [DISPATCH_TRACE] Queued item, txn_sel=0
UVM_INFO axi4l_driver.sv(33) @ 30000: uvm_test_top.env.agt.drv [DISPATCH_TRACE] Queued item, txn_sel=1
UVM_INFO axi4l_driver.sv(33) @ 30000: uvm_test_top.env.agt.drv [DISPATCH_TRACE] Queued item, txn_sel=1
UVM_INFO axi4l_driver.sv(33) @ 30000: uvm_test_top.env.agt.drv [DISPATCH_TRACE] Queued item, txn_sel=0
UVM_INFO axi4l_driver.sv(33) @ 30000: uvm_test_top.env.agt.drv [DISPATCH_TRACE] Queued item, txn_sel=1
UVM_INFO axi4l_driver.sv(33) @ 30000: uvm_test_top.env.agt.drv [DISPATCH_TRACE] Queued item, txn_sel=10
UVM_INFO axi4l_driver.sv(33) @ 30000: uvm_test_top.env.agt.drv [DISPATCH_TRACE] Queued item, txn_sel=1
UVM_INFO axi4l_driver.sv(33) @ 30000: uvm_test_top.env.agt.drv [DISPATCH_TRACE] Queued item, txn_sel=0
UVM_INFO axi4l_driver.sv(33) @ 30000: uvm_test_top.env.agt.drv [DISPATCH_TRACE] Queued item, txn_sel=11
UVM_INFO axi4l_driver.sv(33) @ 30000: uvm_test_top.env.agt.drv [DISPATCH_TRACE] Queued item, txn_sel=11
UVM_INFO axi4l_driver.sv(33) @ 30000: uvm_test_top.env.agt.drv [DISPATCH_TRACE] Queued item, txn_sel=10
UVM_INFO axi4l_driver.sv(33) @ 30000: uvm_test_top.env.agt.drv [DISPATCH_TRACE] Queued item, txn_sel=0
UVM_INFO axi4l_driver.sv(33) @ 30000: uvm_test_top.env.agt.drv [DISPATCH_TRACE] Queued item, txn_sel=1
UVM_INFO axi4l_driver.sv(33) @ 30000: uvm_test_top.env.agt.drv [DISPATCH_TRACE] Queued item, txn_sel=11
UVM_INFO axi4l_driver.sv(33) @ 30000: uvm_test_top.env.agt.drv [DISPATCH_TRACE] Queued item, txn_sel=11
UVM_INFO axi4l_driver.sv(33) @ 30000: uvm_test_top.env.agt.drv [DISPATCH_TRACE] Queued item, txn_sel=11
UVM_INFO axi4l_driver.sv(33) @ 30000: uvm_test_top.env.agt.drv [DISPATCH_TRACE] Queued item, txn_sel=10
UVM_INFO axi4l_driver.sv(33) @ 30000: uvm_test_top.env.agt.drv [DISPATCH_TRACE] Queued item, txn_sel=10
UVM_INFO axi4l_driver.sv(33) @ 30000: uvm_test_top.env.agt.drv [DISPATCH_TRACE] Queued item, txn_sel=11
UVM_INFO axi4l_driver.sv(33) @ 30000: uvm_test_top.env.agt.drv [DISPATCH_TRACE] Queued item, txn_sel=11
UVM_INFO axi4l_driver.sv(33) @ 30000: uvm_test_top.env.agt.drv [DISPATCH_TRACE] Queued item, txn_sel=1
UVM_INFO axi4l_driver.sv(33) @ 30000: uvm_test_top.env.agt.drv [DISPATCH_TRACE] Queued item, txn_sel=1
UVM_INFO axi4l_driver.sv(33) @ 30000: uvm_test_top.env.agt.drv [DISPATCH_TRACE] Queued item, txn_sel=1
UVM_INFO axi4l_driver.sv(33) @ 30000: uvm_test_top.env.agt.drv [DISPATCH_TRACE] Queued item, txn_sel=1
UVM_INFO axi4l_driver.sv(33) @ 30000: uvm_test_top.env.agt.drv [DISPATCH_TRACE] Queued item, txn_sel=0
UVM_INFO axi4l_driver.sv(33) @ 30000: uvm_test_top.env.agt.drv [DISPATCH_TRACE] Queued item, txn_sel=1
UVM_INFO axi4l_driver.sv(33) @ 30000: uvm_test_top.env.agt.drv [DISPATCH_TRACE] Queued item, txn_sel=0
UVM_INFO axi4l_driver.sv(33) @ 30000: uvm_test_top.env.agt.drv [DISPATCH_TRACE] Queued item, txn_sel=10
UVM_INFO axi4l_driver.sv(33) @ 30000: uvm_test_top.env.agt.drv [DISPATCH_TRACE] Queued item, txn_sel=10
UVM_INFO axi4l_driver.sv(33) @ 30000: uvm_test_top.env.agt.drv [DISPATCH_TRACE] Queued item, txn_sel=10
UVM_INFO axi4l_driver.sv(33) @ 30000: uvm_test_top.env.agt.drv [DISPATCH_TRACE] Queued item, txn_sel=10
UVM_INFO axi4l_driver.sv(33) @ 30000: uvm_test_top.env.agt.drv [DISPATCH_TRACE] Queued item, txn_sel=1
UVM_INFO axi4l_driver.sv(33) @ 30000: uvm_test_top.env.agt.drv [DISPATCH_TRACE] Queued item, txn_sel=11
UVM_INFO axi4l_driver.sv(33) @ 30000: uvm_test_top.env.agt.drv [DISPATCH_TRACE] Queued item, txn_sel=10
UVM_INFO axi4l_driver.sv(33) @ 30000: uvm_test_top.env.agt.drv [DISPATCH_TRACE] Queued item, txn_sel=10
UVM_INFO axi4l_driver.sv(33) @ 30000: uvm_test_top.env.agt.drv [DISPATCH_TRACE] Queued item, txn_sel=1
UVM_INFO axi4l_driver.sv(33) @ 30000: uvm_test_top.env.agt.drv [DISPATCH_TRACE] Queued item, txn_sel=0
UVM_INFO axi4l_driver.sv(33) @ 30000: uvm_test_top.env.agt.drv [DISPATCH_TRACE] Queued item, txn_sel=10
UVM_INFO axi4l_driver.sv(33) @ 30000: uvm_test_top.env.agt.drv [DISPATCH_TRACE] Queued item, txn_sel=11
UVM_INFO axi4l_driver.sv(33) @ 30000: uvm_test_top.env.agt.drv [DISPATCH_TRACE] Queued item, txn_sel=0
UVM_INFO axi4l_driver.sv(33) @ 30000: uvm_test_top.env.agt.drv [DISPATCH_TRACE] Queued item, txn_sel=1
UVM_INFO axi4l_driver.sv(33) @ 30000: uvm_test_top.env.agt.drv [DISPATCH_TRACE] Queued item, txn_sel=1
UVM_INFO axi4l_driver.sv(33) @ 30000: uvm_test_top.env.agt.drv [DISPATCH_TRACE] Queued item, txn_sel=10
UVM_INFO axi4l_driver.sv(33) @ 30000: uvm_test_top.env.agt.drv [DISPATCH_TRACE] Queued item, txn_sel=10
UVM_INFO axi4l_driver.sv(33) @ 30000: uvm_test_top.env.agt.drv [DISPATCH_TRACE] Queued item, txn_sel=0
UVM_INFO axi4l_driver.sv(33) @ 30000: uvm_test_top.env.agt.drv [DISPATCH_TRACE] Queued item, txn_sel=11
UVM_INFO axi4l_driver.sv(33) @ 30000: uvm_test_top.env.agt.drv [DISPATCH_TRACE] Queued item, txn_sel=0
UVM_INFO axi4l_driver.sv(33) @ 30000: uvm_test_top.env.agt.drv [DISPATCH_TRACE] Queued item, txn_sel=11
UVM_INFO axi4l_driver.sv(33) @ 30000: uvm_test_top.env.agt.drv [DISPATCH_TRACE] Queued item, txn_sel=10
UVM_INFO axi4l_driver.sv(33) @ 30000: uvm_test_top.env.agt.drv [DISPATCH_TRACE] Queued item, txn_sel=10
UVM_INFO axi4l_driver.sv(33) @ 30000: uvm_test_top.env.agt.drv [DISPATCH_TRACE] Queued item, txn_sel=0
UVM_INFO axi4l_driver.sv(33) @ 30000: uvm_test_top.env.agt.drv [DISPATCH_TRACE] Queued item, txn_sel=11
UVM_INFO axi4l_driver.sv(33) @ 30000: uvm_test_top.env.agt.drv [DISPATCH_TRACE] Queued item, txn_sel=11
UVM_INFO axi4l_driver.sv(33) @ 30000: uvm_test_top.env.agt.drv [DISPATCH_TRACE] Queued item, txn_sel=10
UVM_INFO axi4l_driver.sv(33) @ 30000: uvm_test_top.env.agt.drv [DISPATCH_TRACE] Queued item, txn_sel=0
UVM_INFO axi4l_driver.sv(33) @ 30000: uvm_test_top.env.agt.drv [DISPATCH_TRACE] Queued item, txn_sel=11
UVM_INFO axi4l_driver.sv(33) @ 30000: uvm_test_top.env.agt.drv [DISPATCH_TRACE] Queued item, txn_sel=10
UVM_INFO axi4l_driver.sv(33) @ 30000: uvm_test_top.env.agt.drv [DISPATCH_TRACE] Queued item, txn_sel=11
UVM_INFO axi4l_driver.sv(33) @ 30000: uvm_test_top.env.agt.drv [DISPATCH_TRACE] Queued item, txn_sel=0
UVM_INFO axi4l_driver.sv(33) @ 30000: uvm_test_top.env.agt.drv [DISPATCH_TRACE] Queued item, txn_sel=10
UVM_INFO axi4l_driver.sv(33) @ 30000: uvm_test_top.env.agt.drv [DISPATCH_TRACE] Queued item, txn_sel=0
UVM_INFO axi4l_driver.sv(33) @ 30000: uvm_test_top.env.agt.drv [DISPATCH_TRACE] Queued item, txn_sel=0
UVM_INFO axi4l_driver.sv(33) @ 30000: uvm_test_top.env.agt.drv [DISPATCH_TRACE] Queued item, txn_sel=1
UVM_INFO axi4l_driver.sv(33) @ 30000: uvm_test_top.env.agt.drv [DISPATCH_TRACE] Queued item, txn_sel=0
UVM_INFO axi4l_driver.sv(33) @ 30000: uvm_test_top.env.agt.drv [DISPATCH_TRACE] Queued item, txn_sel=1
UVM_INFO axi4l_driver.sv(33) @ 30000: uvm_test_top.env.agt.drv [DISPATCH_TRACE] Queued item, txn_sel=10
UVM_INFO axi4l_driver.sv(33) @ 30000: uvm_test_top.env.agt.drv [DISPATCH_TRACE] Queued item, txn_sel=10
UVM_INFO axi4l_driver.sv(33) @ 30000: uvm_test_top.env.agt.drv [DISPATCH_TRACE] Queued item, txn_sel=1
UVM_INFO axi4l_driver.sv(33) @ 30000: uvm_test_top.env.agt.drv [DISPATCH_TRACE] Queued item, txn_sel=1
UVM_INFO axi4l_driver.sv(33) @ 30000: uvm_test_top.env.agt.drv [DISPATCH_TRACE] Queued item, txn_sel=0
UVM_INFO axi4l_driver.sv(33) @ 30000: uvm_test_top.env.agt.drv [DISPATCH_TRACE] Queued item, txn_sel=11
UVM_INFO axi4l_driver.sv(33) @ 30000: uvm_test_top.env.agt.drv [DISPATCH_TRACE] Queued item, txn_sel=0
UVM_INFO axi4l_driver.sv(33) @ 30000: uvm_test_top.env.agt.drv [DISPATCH_TRACE] Queued item, txn_sel=1
UVM_INFO axi4l_driver.sv(33) @ 30000: uvm_test_top.env.agt.drv [DISPATCH_TRACE] Queued item, txn_sel=10
UVM_INFO axi4l_driver.sv(33) @ 30000: uvm_test_top.env.agt.drv [DISPATCH_TRACE] Queued item, txn_sel=11
UVM_INFO axi4l_driver.sv(33) @ 30000: uvm_test_top.env.agt.drv [DISPATCH_TRACE] Queued item, txn_sel=10
UVM_INFO axi4l_driver.sv(33) @ 30000: uvm_test_top.env.agt.drv [DISPATCH_TRACE] Queued item, txn_sel=1
UVM_INFO axi4l_driver.sv(33) @ 30000: uvm_test_top.env.agt.drv [DISPATCH_TRACE] Queued item, txn_sel=1
UVM_INFO axi4l_driver.sv(33) @ 30000: uvm_test_top.env.agt.drv [DISPATCH_TRACE] Queued item, txn_sel=11
UVM_INFO axi4l_driver.sv(33) @ 30000: uvm_test_top.env.agt.drv [DISPATCH_TRACE] Queued item, txn_sel=0
UVM_INFO axi4l_driver.sv(33) @ 30000: uvm_test_top.env.agt.drv [DISPATCH_TRACE] Queued item, txn_sel=0
UVM_INFO axi4l_driver.sv(33) @ 30000: uvm_test_top.env.agt.drv [DISPATCH_TRACE] Queued item, txn_sel=11
UVM_INFO axi4l_driver.sv(33) @ 30000: uvm_test_top.env.agt.drv [DISPATCH_TRACE] Queued item, txn_sel=1
UVM_INFO axi4l_driver.sv(33) @ 30000: uvm_test_top.env.agt.drv [DISPATCH_TRACE] Queued item, txn_sel=0
UVM_INFO axi4l_driver.sv(33) @ 30000: uvm_test_top.env.agt.drv [DISPATCH_TRACE] Queued item, txn_sel=1
UVM_INFO axi4l_driver.sv(33) @ 30000: uvm_test_top.env.agt.drv [DISPATCH_TRACE] Queued item, txn_sel=10
UVM_INFO axi4l_driver.sv(33) @ 30000: uvm_test_top.env.agt.drv [DISPATCH_TRACE] Queued item, txn_sel=11
UVM_INFO axi4l_driver.sv(33) @ 30000: uvm_test_top.env.agt.drv [DISPATCH_TRACE] Queued item, txn_sel=10
UVM_INFO axi4l_driver.sv(33) @ 30000: uvm_test_top.env.agt.drv [DISPATCH_TRACE] Queued item, txn_sel=10
UVM_INFO axi4l_driver.sv(33) @ 30000: uvm_test_top.env.agt.drv [DISPATCH_TRACE] Queued item, txn_sel=10
UVM_INFO axi4l_driver.sv(33) @ 30000: uvm_test_top.env.agt.drv [DISPATCH_TRACE] Queued item, txn_sel=1
UVM_INFO axi4l_driver.sv(33) @ 30000: uvm_test_top.env.agt.drv [DISPATCH_TRACE] Queued item, txn_sel=0
UVM_INFO axi4l_driver.sv(33) @ 30000: uvm_test_top.env.agt.drv [DISPATCH_TRACE] Queued item, txn_sel=1
UVM_INFO axi4l_driver.sv(33) @ 30000: uvm_test_top.env.agt.drv [DISPATCH_TRACE] Queued item, txn_sel=1
UVM_INFO axi4l_driver.sv(33) @ 30000: uvm_test_top.env.agt.drv [DISPATCH_TRACE] Queued item, txn_sel=1
UVM_INFO axi4l_driver.sv(33) @ 30000: uvm_test_top.env.agt.drv [DISPATCH_TRACE] Queued item, txn_sel=0
UVM_INFO axi4l_driver.sv(33) @ 30000: uvm_test_top.env.agt.drv [DISPATCH_TRACE] Queued item, txn_sel=10
UVM_INFO axi4l_driver.sv(33) @ 30000: uvm_test_top.env.agt.drv [DISPATCH_TRACE] Queued item, txn_sel=10
UVM_INFO axi4l_driver.sv(33) @ 30000: uvm_test_top.env.agt.drv [DISPATCH_TRACE] Queued item, txn_sel=11
UVM_INFO axi4l_driver.sv(33) @ 30000: uvm_test_top.env.agt.drv [DISPATCH_TRACE] Queued item, txn_sel=11
UVM_INFO axi4l_driver.sv(33) @ 30000: uvm_test_top.env.agt.drv [DISPATCH_TRACE] Queued item, txn_sel=10
UVM_INFO axi4l_driver.sv(33) @ 30000: uvm_test_top.env.agt.drv [DISPATCH_TRACE] Queued item, txn_sel=11
UVM_INFO axi4l_driver.sv(33) @ 30000: uvm_test_top.env.agt.drv [DISPATCH_TRACE] Queued item, txn_sel=10
UVM_INFO axi4l_driver.sv(33) @ 30000: uvm_test_top.env.agt.drv [DISPATCH_TRACE] Queued item, txn_sel=11
UVM_INFO axi4l_driver.sv(33) @ 30000: uvm_test_top.env.agt.drv [DISPATCH_TRACE] Queued item, txn_sel=1
UVM_INFO axi4l_driver.sv(33) @ 30000: uvm_test_top.env.agt.drv [DISPATCH_TRACE] Queued item, txn_sel=11
UVM_INFO axi4l_driver.sv(33) @ 30000: uvm_test_top.env.agt.drv [DISPATCH_TRACE] Queued item, txn_sel=1
UVM_INFO axi4l_driver.sv(33) @ 30000: uvm_test_top.env.agt.drv [DISPATCH_TRACE] Queued item, txn_sel=11
UVM_INFO axi4l_driver.sv(33) @ 30000: uvm_test_top.env.agt.drv [DISPATCH_TRACE] Queued item, txn_sel=11
UVM_INFO axi4l_driver.sv(33) @ 30000: uvm_test_top.env.agt.drv [DISPATCH_TRACE] Queued item, txn_sel=0
UVM_INFO axi4l_driver.sv(33) @ 30000: uvm_test_top.env.agt.drv [DISPATCH_TRACE] Queued item, txn_sel=11
UVM_INFO axi4l_driver.sv(33) @ 30000: uvm_test_top.env.agt.drv [DISPATCH_TRACE] Queued item, txn_sel=11
UVM_INFO axi4l_driver.sv(33) @ 30000: uvm_test_top.env.agt.drv [DISPATCH_TRACE] Queued item, txn_sel=11
UVM_INFO axi4l_driver.sv(33) @ 30000: uvm_test_top.env.agt.drv [DISPATCH_TRACE] Queued item, txn_sel=10
UVM_INFO axi4l_driver.sv(33) @ 30000: uvm_test_top.env.agt.drv [DISPATCH_TRACE] Queued item, txn_sel=10
UVM_INFO axi4l_driver.sv(33) @ 30000: uvm_test_top.env.agt.drv [DISPATCH_TRACE] Queued item, txn_sel=1
UVM_INFO axi4l_driver.sv(33) @ 30000: uvm_test_top.env.agt.drv [DISPATCH_TRACE] Queued item, txn_sel=11
UVM_INFO axi4l_driver.sv(33) @ 30000: uvm_test_top.env.agt.drv [DISPATCH_TRACE] Queued item, txn_sel=10
UVM_INFO axi4l_driver.sv(33) @ 30000: uvm_test_top.env.agt.drv [DISPATCH_TRACE] Queued item, txn_sel=0
UVM_INFO axi4l_driver.sv(33) @ 30000: uvm_test_top.env.agt.drv [DISPATCH_TRACE] Queued item, txn_sel=10
UVM_INFO axi4l_driver.sv(33) @ 30000: uvm_test_top.env.agt.drv [DISPATCH_TRACE] Queued item, txn_sel=1
UVM_INFO axi4l_driver.sv(33) @ 30000: uvm_test_top.env.agt.drv [DISPATCH_TRACE] Queued item, txn_sel=0
UVM_INFO axi4l_driver.sv(33) @ 30000: uvm_test_top.env.agt.drv [DISPATCH_TRACE] Queued item, txn_sel=1
UVM_INFO axi4l_driver.sv(33) @ 30000: uvm_test_top.env.agt.drv [DISPATCH_TRACE] Queued item, txn_sel=0
UVM_INFO axi4l_driver.sv(33) @ 30000: uvm_test_top.env.agt.drv [DISPATCH_TRACE] Queued item, txn_sel=0
UVM_INFO axi4l_driver.sv(33) @ 30000: uvm_test_top.env.agt.drv [DISPATCH_TRACE] Queued item, txn_sel=0
UVM_INFO axi4l_driver.sv(33) @ 30000: uvm_test_top.env.agt.drv [DISPATCH_TRACE] Queued item, txn_sel=0
UVM_INFO axi4l_driver.sv(33) @ 30000: uvm_test_top.env.agt.drv [DISPATCH_TRACE] Queued item, txn_sel=1
UVM_INFO axi4l_driver.sv(33) @ 30000: uvm_test_top.env.agt.drv [DISPATCH_TRACE] Queued item, txn_sel=10
UVM_INFO axi4l_driver.sv(33) @ 30000: uvm_test_top.env.agt.drv [DISPATCH_TRACE] Queued item, txn_sel=11
UVM_INFO axi4l_driver.sv(33) @ 30000: uvm_test_top.env.agt.drv [DISPATCH_TRACE] Queued item, txn_sel=0
UVM_INFO axi4l_driver.sv(33) @ 30000: uvm_test_top.env.agt.drv [DISPATCH_TRACE] Queued item, txn_sel=0
UVM_INFO axi4l_driver.sv(33) @ 30000: uvm_test_top.env.agt.drv [DISPATCH_TRACE] Queued item, txn_sel=1
UVM_INFO axi4l_driver.sv(33) @ 30000: uvm_test_top.env.agt.drv [DISPATCH_TRACE] Queued item, txn_sel=1
UVM_INFO axi4l_driver.sv(33) @ 30000: uvm_test_top.env.agt.drv [DISPATCH_TRACE] Queued item, txn_sel=0
UVM_INFO axi4l_driver.sv(33) @ 30000: uvm_test_top.env.agt.drv [DISPATCH_TRACE] Queued item, txn_sel=0
UVM_INFO axi4l_driver.sv(33) @ 30000: uvm_test_top.env.agt.drv [DISPATCH_TRACE] Queued item, txn_sel=11
UVM_INFO axi4l_driver.sv(33) @ 30000: uvm_test_top.env.agt.drv [DISPATCH_TRACE] Queued item, txn_sel=0
UVM_INFO axi4l_driver.sv(33) @ 30000: uvm_test_top.env.agt.drv [DISPATCH_TRACE] Queued item, txn_sel=10
UVM_INFO axi4l_driver.sv(33) @ 30000: uvm_test_top.env.agt.drv [DISPATCH_TRACE] Queued item, txn_sel=0
UVM_INFO axi4l_driver.sv(33) @ 30000: uvm_test_top.env.agt.drv [DISPATCH_TRACE] Queued item, txn_sel=10
UVM_INFO axi4l_driver.sv(33) @ 30000: uvm_test_top.env.agt.drv [DISPATCH_TRACE] Queued item, txn_sel=0
UVM_INFO axi4l_driver.sv(33) @ 30000: uvm_test_top.env.agt.drv [DISPATCH_TRACE] Queued item, txn_sel=1
UVM_INFO axi4l_driver.sv(33) @ 30000: uvm_test_top.env.agt.drv [DISPATCH_TRACE] Queued item, txn_sel=1
UVM_INFO axi4l_driver.sv(33) @ 30000: uvm_test_top.env.agt.drv [DISPATCH_TRACE] Queued item, txn_sel=11
UVM_INFO axi4l_driver.sv(33) @ 30000: uvm_test_top.env.agt.drv [DISPATCH_TRACE] Queued item, txn_sel=0
UVM_INFO axi4l_driver.sv(33) @ 30000: uvm_test_top.env.agt.drv [DISPATCH_TRACE] Queued item, txn_sel=10
UVM_INFO axi4l_driver.sv(33) @ 30000: uvm_test_top.env.agt.drv [DISPATCH_TRACE] Queued item, txn_sel=1
UVM_INFO axi4l_driver.sv(33) @ 30000: uvm_test_top.env.agt.drv [DISPATCH_TRACE] Queued item, txn_sel=0
UVM_INFO axi4l_driver.sv(33) @ 30000: uvm_test_top.env.agt.drv [DISPATCH_TRACE] Queued item, txn_sel=1
UVM_INFO axi4l_driver.sv(33) @ 30000: uvm_test_top.env.agt.drv [DISPATCH_TRACE] Queued item, txn_sel=10
UVM_INFO axi4l_driver.sv(33) @ 30000: uvm_test_top.env.agt.drv [DISPATCH_TRACE] Queued item, txn_sel=1
UVM_INFO axi4l_driver.sv(33) @ 30000: uvm_test_top.env.agt.drv [DISPATCH_TRACE] Queued item, txn_sel=1
UVM_INFO axi4l_driver.sv(33) @ 30000: uvm_test_top.env.agt.drv [DISPATCH_TRACE] Queued item, txn_sel=0
UVM_INFO axi4l_driver.sv(33) @ 30000: uvm_test_top.env.agt.drv [DISPATCH_TRACE] Queued item, txn_sel=10
UVM_INFO axi4l_driver.sv(33) @ 30000: uvm_test_top.env.agt.drv [DISPATCH_TRACE] Queued item, txn_sel=1
UVM_INFO axi4l_driver.sv(33) @ 30000: uvm_test_top.env.agt.drv [DISPATCH_TRACE] Queued item, txn_sel=1
UVM_INFO axi4l_driver.sv(33) @ 30000: uvm_test_top.env.agt.drv [DISPATCH_TRACE] Queued item, txn_sel=1
UVM_INFO axi4l_driver.sv(33) @ 30000: uvm_test_top.env.agt.drv [DISPATCH_TRACE] Queued item, txn_sel=11
UVM_INFO axi4l_driver.sv(33) @ 30000: uvm_test_top.env.agt.drv [DISPATCH_TRACE] Queued item, txn_sel=1
UVM_INFO axi4l_driver.sv(33) @ 30000: uvm_test_top.env.agt.drv [DISPATCH_TRACE] Queued item, txn_sel=0
UVM_INFO axi4l_driver.sv(33) @ 30000: uvm_test_top.env.agt.drv [DISPATCH_TRACE] Queued item, txn_sel=0
UVM_INFO axi4l_driver.sv(33) @ 30000: uvm_test_top.env.agt.drv [DISPATCH_TRACE] Queued item, txn_sel=1
UVM_INFO axi4l_driver.sv(33) @ 30000: uvm_test_top.env.agt.drv [DISPATCH_TRACE] Queued item, txn_sel=11
UVM_INFO axi4l_driver.sv(33) @ 30000: uvm_test_top.env.agt.drv [DISPATCH_TRACE] Queued item, txn_sel=11
UVM_INFO axi4l_driver.sv(33) @ 30000: uvm_test_top.env.agt.drv [DISPATCH_TRACE] Queued item, txn_sel=11
UVM_INFO axi4l_driver.sv(33) @ 30000: uvm_test_top.env.agt.drv [DISPATCH_TRACE] Queued item, txn_sel=0
UVM_INFO axi4l_driver.sv(33) @ 30000: uvm_test_top.env.agt.drv [DISPATCH_TRACE] Queued item, txn_sel=10
UVM_INFO axi4l_driver.sv(33) @ 30000: uvm_test_top.env.agt.drv [DISPATCH_TRACE] Queued item, txn_sel=0
UVM_INFO axi4l_driver.sv(33) @ 30000: uvm_test_top.env.agt.drv [DISPATCH_TRACE] Queued item, txn_sel=0
UVM_INFO axi4l_driver.sv(33) @ 30000: uvm_test_top.env.agt.drv [DISPATCH_TRACE] Queued item, txn_sel=1
UVM_INFO axi4l_driver.sv(33) @ 30000: uvm_test_top.env.agt.drv [DISPATCH_TRACE] Queued item, txn_sel=10
UVM_INFO axi4l_driver.sv(33) @ 30000: uvm_test_top.env.agt.drv [DISPATCH_TRACE] Queued item, txn_sel=11
UVM_INFO axi4l_driver.sv(33) @ 30000: uvm_test_top.env.agt.drv [DISPATCH_TRACE] Queued item, txn_sel=1
UVM_INFO axi4l_driver.sv(33) @ 30000: uvm_test_top.env.agt.drv [DISPATCH_TRACE] Queued item, txn_sel=11
UVM_INFO axi4l_driver.sv(33) @ 30000: uvm_test_top.env.agt.drv [DISPATCH_TRACE] Queued item, txn_sel=0
UVM_INFO axi4l_driver.sv(33) @ 30000: uvm_test_top.env.agt.drv [DISPATCH_TRACE] Queued item, txn_sel=1
UVM_INFO axi4l_driver.sv(33) @ 30000: uvm_test_top.env.agt.drv [DISPATCH_TRACE] Queued item, txn_sel=0
UVM_INFO axi4l_driver.sv(33) @ 30000: uvm_test_top.env.agt.drv [DISPATCH_TRACE] Queued item, txn_sel=10
UVM_INFO axi4l_driver.sv(33) @ 30000: uvm_test_top.env.agt.drv [DISPATCH_TRACE] Queued item, txn_sel=10
UVM_INFO axi4l_driver.sv(33) @ 30000: uvm_test_top.env.agt.drv [DISPATCH_TRACE] Queued item, txn_sel=10
UVM_INFO axi4l_driver.sv(33) @ 30000: uvm_test_top.env.agt.drv [DISPATCH_TRACE] Queued item, txn_sel=1
UVM_INFO axi4l_driver.sv(33) @ 30000: uvm_test_top.env.agt.drv [DISPATCH_TRACE] Queued item, txn_sel=11
UVM_INFO axi4l_driver.sv(33) @ 30000: uvm_test_top.env.agt.drv [DISPATCH_TRACE] Queued item, txn_sel=1
UVM_INFO axi4l_driver.sv(33) @ 30000: uvm_test_top.env.agt.drv [DISPATCH_TRACE] Queued item, txn_sel=10
UVM_INFO axi4l_driver.sv(33) @ 30000: uvm_test_top.env.agt.drv [DISPATCH_TRACE] Queued item, txn_sel=10
UVM_INFO axi4l_driver.sv(33) @ 30000: uvm_test_top.env.agt.drv [DISPATCH_TRACE] Queued item, txn_sel=10
UVM_INFO axi4l_driver.sv(33) @ 30000: uvm_test_top.env.agt.drv [DISPATCH_TRACE] Queued item, txn_sel=10
UVM_INFO axi4l_driver.sv(33) @ 30000: uvm_test_top.env.agt.drv [DISPATCH_TRACE] Queued item, txn_sel=1
UVM_INFO axi4l_driver.sv(33) @ 30000: uvm_test_top.env.agt.drv [DISPATCH_TRACE] Queued item, txn_sel=1
UVM_INFO axi4l_driver.sv(33) @ 30000: uvm_test_top.env.agt.drv [DISPATCH_TRACE] Queued item, txn_sel=10
UVM_INFO axi4l_driver.sv(33) @ 30000: uvm_test_top.env.agt.drv [DISPATCH_TRACE] Queued item, txn_sel=10
UVM_INFO axi4l_driver.sv(33) @ 30000: uvm_test_top.env.agt.drv [DISPATCH_TRACE] Queued item, txn_sel=0
UVM_INFO axi4l_driver.sv(33) @ 30000: uvm_test_top.env.agt.drv [DISPATCH_TRACE] Queued item, txn_sel=10
UVM_INFO axi4l_driver.sv(33) @ 30000: uvm_test_top.env.agt.drv [DISPATCH_TRACE] Queued item, txn_sel=10
UVM_INFO axi4l_driver.sv(33) @ 30000: uvm_test_top.env.agt.drv [DISPATCH_TRACE] Queued item, txn_sel=11
UVM_INFO axi4l_driver.sv(33) @ 30000: uvm_test_top.env.agt.drv [DISPATCH_TRACE] Queued item, txn_sel=1
UVM_INFO axi4l_driver.sv(33) @ 30000: uvm_test_top.env.agt.drv [DISPATCH_TRACE] Queued item, txn_sel=11
UVM_INFO axi4l_driver.sv(33) @ 30000: uvm_test_top.env.agt.drv [DISPATCH_TRACE] Queued item, txn_sel=0
UVM_INFO axi4l_driver.sv(33) @ 30000: uvm_test_top.env.agt.drv [DISPATCH_TRACE] Queued item, txn_sel=0
UVM_INFO axi4l_driver.sv(33) @ 30000: uvm_test_top.env.agt.drv [DISPATCH_TRACE] Queued item, txn_sel=0
UVM_INFO axi4l_driver.sv(33) @ 30000: uvm_test_top.env.agt.drv [DISPATCH_TRACE] Queued item, txn_sel=11
UVM_INFO axi4l_driver.sv(33) @ 30000: uvm_test_top.env.agt.drv [DISPATCH_TRACE] Queued item, txn_sel=10
UVM_INFO axi4l_driver.sv(33) @ 30000: uvm_test_top.env.agt.drv [DISPATCH_TRACE] Queued item, txn_sel=0
UVM_INFO axi4l_driver.sv(33) @ 30000: uvm_test_top.env.agt.drv [DISPATCH_TRACE] Queued item, txn_sel=0
UVM_INFO axi4l_driver.sv(33) @ 30000: uvm_test_top.env.agt.drv [DISPATCH_TRACE] Queued item, txn_sel=0
UVM_INFO axi4l_driver.sv(33) @ 30000: uvm_test_top.env.agt.drv [DISPATCH_TRACE] Queued item, txn_sel=1
UVM_INFO axi4l_driver.sv(33) @ 30000: uvm_test_top.env.agt.drv [DISPATCH_TRACE] Queued item, txn_sel=10
UVM_INFO axi4l_driver.sv(33) @ 30000: uvm_test_top.env.agt.drv [DISPATCH_TRACE] Queued item, txn_sel=0
UVM_INFO axi4l_driver.sv(33) @ 30000: uvm_test_top.env.agt.drv [DISPATCH_TRACE] Queued item, txn_sel=0
UVM_INFO axi4l_driver.sv(33) @ 30000: uvm_test_top.env.agt.drv [DISPATCH_TRACE] Queued item, txn_sel=1
UVM_INFO axi4l_driver.sv(33) @ 30000: uvm_test_top.env.agt.drv [DISPATCH_TRACE] Queued item, txn_sel=0
UVM_INFO axi4l_driver.sv(33) @ 30000: uvm_test_top.env.agt.drv [DISPATCH_TRACE] Queued item, txn_sel=1
UVM_INFO axi4l_driver.sv(33) @ 30000: uvm_test_top.env.agt.drv [DISPATCH_TRACE] Queued item, txn_sel=10
UVM_INFO axi4l_driver.sv(33) @ 30000: uvm_test_top.env.agt.drv [DISPATCH_TRACE] Queued item, txn_sel=10
UVM_INFO axi4l_driver.sv(33) @ 30000: uvm_test_top.env.agt.drv [DISPATCH_TRACE] Queued item, txn_sel=1
UVM_INFO axi4l_driver.sv(33) @ 30000: uvm_test_top.env.agt.drv [DISPATCH_TRACE] Queued item, txn_sel=0
UVM_INFO axi4l_driver.sv(33) @ 30000: uvm_test_top.env.agt.drv [DISPATCH_TRACE] Queued item, txn_sel=0
UVM_INFO axi4l_driver.sv(33) @ 30000: uvm_test_top.env.agt.drv [DISPATCH_TRACE] Queued item, txn_sel=11
UVM_INFO axi4l_driver.sv(33) @ 30000: uvm_test_top.env.agt.drv [DISPATCH_TRACE] Queued item, txn_sel=10
UVM_INFO axi4l_driver.sv(33) @ 30000: uvm_test_top.env.agt.drv [DISPATCH_TRACE] Queued item, txn_sel=11
UVM_INFO axi4l_driver.sv(33) @ 30000: uvm_test_top.env.agt.drv [DISPATCH_TRACE] Queued item, txn_sel=0
UVM_INFO axi4l_driver.sv(33) @ 30000: uvm_test_top.env.agt.drv [DISPATCH_TRACE] Queued item, txn_sel=0
UVM_INFO axi4l_driver.sv(33) @ 30000: uvm_test_top.env.agt.drv [DISPATCH_TRACE] Queued item, txn_sel=10
UVM_INFO axi4l_driver.sv(33) @ 30000: uvm_test_top.env.agt.drv [DISPATCH_TRACE] Queued item, txn_sel=1
UVM_INFO axi4l_driver.sv(33) @ 30000: uvm_test_top.env.agt.drv [DISPATCH_TRACE] Queued item, txn_sel=1
UVM_INFO axi4l_driver.sv(33) @ 30000: uvm_test_top.env.agt.drv [DISPATCH_TRACE] Queued item, txn_sel=10
UVM_INFO axi4l_driver.sv(33) @ 30000: uvm_test_top.env.agt.drv [DISPATCH_TRACE] Queued item, txn_sel=10
UVM_INFO axi4l_driver.sv(33) @ 30000: uvm_test_top.env.agt.drv [DISPATCH_TRACE] Queued item, txn_sel=11
UVM_INFO axi4l_driver.sv(33) @ 30000: uvm_test_top.env.agt.drv [DISPATCH_TRACE] Queued item, txn_sel=11
UVM_INFO axi4l_driver.sv(33) @ 30000: uvm_test_top.env.agt.drv [DISPATCH_TRACE] Queued item, txn_sel=11
UVM_INFO axi4l_driver.sv(33) @ 30000: uvm_test_top.env.agt.drv [DISPATCH_TRACE] Queued item, txn_sel=0
UVM_INFO axi4l_driver.sv(33) @ 30000: uvm_test_top.env.agt.drv [DISPATCH_TRACE] Queued item, txn_sel=1
UVM_INFO axi4l_driver.sv(33) @ 30000: uvm_test_top.env.agt.drv [DISPATCH_TRACE] Queued item, txn_sel=10
UVM_INFO axi4l_driver.sv(33) @ 30000: uvm_test_top.env.agt.drv [DISPATCH_TRACE] Queued item, txn_sel=0
UVM_INFO axi4l_driver.sv(33) @ 30000: uvm_test_top.env.agt.drv [DISPATCH_TRACE] Queued item, txn_sel=11
UVM_INFO axi4l_driver.sv(33) @ 30000: uvm_test_top.env.agt.drv [DISPATCH_TRACE] Queued item, txn_sel=11
UVM_INFO axi4l_driver.sv(33) @ 30000: uvm_test_top.env.agt.drv [DISPATCH_TRACE] Queued item, txn_sel=1
UVM_INFO axi4l_driver.sv(33) @ 30000: uvm_test_top.env.agt.drv [DISPATCH_TRACE] Queued item, txn_sel=0
UVM_INFO axi4l_driver.sv(33) @ 30000: uvm_test_top.env.agt.drv [DISPATCH_TRACE] Queued item, txn_sel=11
UVM_INFO axi4l_driver.sv(33) @ 30000: uvm_test_top.env.agt.drv [DISPATCH_TRACE] Queued item, txn_sel=1
UVM_INFO axi4l_driver.sv(33) @ 30000: uvm_test_top.env.agt.drv [DISPATCH_TRACE] Queued item, txn_sel=10
UVM_INFO axi4l_driver.sv(33) @ 30000: uvm_test_top.env.agt.drv [DISPATCH_TRACE] Queued item, txn_sel=11
UVM_INFO axi4l_driver.sv(33) @ 30000: uvm_test_top.env.agt.drv [DISPATCH_TRACE] Queued item, txn_sel=1
